!Generated from: C:\SIPIProj\Olympus\Xtract\Run_20240725_143525\SimFile\SIM1_P0V9__20240725_143525.spd
! Port_1::P0V9
! Port_2::P0V9
!
!Layout Workbench Version: 23.1.2.10131.459628   200
!Computer Host Name: YANSHENG-LT
!
!TouchstoneFormatFlag = 1
! GNDNET GND
! NETSLIST P0V9
! Port 1 = U1-K8 P0V9
! Port 2 = PL11-2 P0V9
!
#	Hz	S	RI	R	0.1
0	0.014019055753163	0	0.985980944573421	0	0.985980944573421	0	0.0140190557336757	0
0.1	0.0140190557537223	3.16810424716087e-09	0.985980944572799	-3.21939734611342e-09	0.985980944572799	-3.21939734611342e-09	0.0140190557342442	3.17891246999864e-09
0.120226443461741	0.0140190557538428	3.79043113983817e-09	0.98598094457268	-3.84792691025463e-09	0.98598094457268	-3.84792691025463e-09	0.014019055734362	3.80133141594573e-09
0.131825673855641	0.0140190557539083	4.14731565994894e-09	0.985980944572609	-4.20836902594361e-09	0.985980944572609	-4.20836902594361e-09	0.0140190557344282	4.15826911996425e-09
0.144543977074593	0.0140190557539803	4.53863175482324e-09	0.98598094457253	-4.60358594678944e-09	0.98598094457253	-4.60358594678944e-09	0.0140190557345008	4.54964352986679e-09
0.158489319246111	0.0140190557540591	4.96770132069105e-09	0.985980944572444	-5.03693268326946e-09	0.985980944572444	-5.03693268326946e-09	0.0140190557345804	4.97877703693119e-09
0.173780082874938	0.0140190557541456	5.4381667443398e-09	0.98598094457235	-5.51208793122026e-09	0.98598094457235	-5.51208793122026e-09	0.0140190557346677	5.44931257075514e-09
0.190546071796325	0.0140190557542404	5.95402182346568e-09	0.985980944572247	-6.0330853004184e-09	0.985980944572247	-6.0330853004184e-09	0.0140190557347634	5.96524452421577e-09
0.208929613085404	0.0140190557543444	6.51964567016405e-09	0.985980944572134	-6.60434755603636e-09	0.985980944572134	-6.60434755603636e-09	0.0140190557348684	6.53095266201346e-09
0.229086765276777	0.0140190557544584	7.13983988536842e-09	0.985980944572009	-7.2307241636545e-09	0.985980944572009	-7.2307241636545e-09	0.0140190557349835	7.15123930065058e-09
0.251188643150958	0.0140190557545834	7.81986931981208e-09	0.985980944571873	-7.9175324565458e-09	0.985980944571873	-7.9175324565458e-09	0.0140190557351097	7.83137007546869e-09
0.275422870333817	0.0140190557547205	8.56550676753327e-09	0.985980944571724	-8.67060277470835e-09	0.985980944571724	-8.67060277470835e-09	0.0140190557352481	8.5771186408147e-09
0.301995172040202	0.0140190557548708	9.38308197133018e-09	0.98598094457156	-9.49632795882847e-09	0.98598094457156	-9.49632795882847e-09	0.0140190557353999	9.39481568279966e-09
0.331131121482591	0.0140190557550356	1.02795353561734e-08	0.985980944571381	-1.04017176193332e-08	0.985980944571381	-1.04017176193332e-08	0.0140190557355663	1.02914026607204e-08
0.363078054770101	0.0140190557552164	1.12624769467212e-08	0.985980944571184	-1.13944576412231e-08	0.985980944571184	-1.13944576412231e-08	0.0140190557357488	1.12744907333555e-08
0.398107170553497	0.0140190557554146	1.23402509690915e-08	0.985980944570968	-1.24829754298237e-08	0.985980944570968	-1.24829754298237e-08	0.0140190557359489	1.23524253703666e-08
0.436515832240166	0.0140190557556319	1.35220066852953e-08	0.985980944570731	-1.36765114513297e-08	0.985980944570731	-1.36765114513297e-08	0.0140190557361683	1.35343571972898e-08
0.478630092322638	0.0140190557558703	1.48177760616499e-08	0.985980944570471	-1.49851976754521e-08	0.985980944570471	-1.49851976754521e-08	0.0140190557364089	1.48303196755245e-08
0.524807460249773	0.0140190557561316	1.62385589305001e-08	0.985980944570187	-1.64201435860708e-08	0.985980944570187	-1.64201435860708e-08	0.0140190557366728	1.62513142767493e-08
0.575439937337157	0.0140190557564182	1.77964163681903e-08	0.985980944569874	-1.79935304900392e-08	0.985980944569874	-1.79935304900392e-08	0.0140190557369621	1.78094038748114e-08
0.630957344480193	0.0140190557567325	1.95045730819741e-08	0.985980944569532	-1.97187149247338e-08	0.985980944569532	-1.97187149247338e-08	0.0140190557372794	1.95178151478985e-08
0.691830970918936	0.0140190557570772	2.13775296750304e-08	0.985980944569157	-2.16103420421764e-08	0.985980944569157	-2.16103420421764e-08	0.0140190557376274	2.13910508602881e-08
0.758577575029184	0.0140190557574552	2.34311857426059e-08	0.985980944568745	-2.36844699322537e-08	0.985980944568745	-2.36844699322537e-08	0.014019055738009	2.34450129768385e-08
0.831763771102671	0.0140190557578697	2.56829748442526e-08	0.985980944568293	-2.59587059404167e-08	0.985980944568293	-2.59587059404167e-08	0.0140190557384274	2.56971376553458e-08
0.91201083935591	0.0140190557583243	2.81520124979454e-08	0.985980944567798	-2.8452356137066e-08	0.985980944567798	-2.8452356137066e-08	0.0140190557388864	2.81665432627205e-08
1	0.0140190557588229	3.08592584524059e-08	0.985980944567255	-3.11865892074751e-08	0.985980944567255	-3.11865892074751e-08	0.0140190557393897	3.08741926715014e-08
1.09647819614319	0.0140190557593696	3.38276946151706e-08	0.985980944566659	-3.41846161634362e-08	0.985980944566659	-3.41846161634362e-08	0.0140190557399417	3.38430712144445e-08
1.20226443461741	0.0140190557599693	3.70825201468395e-08	0.985980944566006	-3.74718873527755e-08	0.985980944566006	-3.74718873527755e-08	0.0140190557405471	3.70983818078545e-08
1.31825673855641	0.0140190557606271	4.06513653776697e-08	0.98598094456529	-4.10763086218532e-08	0.98598094456529	-4.10763086218532e-08	0.0140190557412111	4.06677589000654e-08
1.44543977074593	0.0140190557613484	4.456452636246e-08	0.985980944564504	-4.50284778871553e-08	0.985980944564504	-4.50284778871553e-08	0.0140190557419393	4.4581503061289e-08
1.58489319246111	0.0140190557621397	4.88552220648714e-08	0.985980944563643	-4.936194531065e-08	0.985980944563643	-4.936194531065e-08	0.0140190557427381	4.88728382062738e-08
1.73780082874938	0.0140190557630076	5.35598763544325e-08	0.985980944562697	-5.41134978507728e-08	0.985980944562697	-5.41134978507728e-08	0.0140190557436142	5.35781936333473e-08
1.90546071796325	0.0140190557639596	5.87184272102937e-08	0.985980944561661	-5.93234716087013e-08	0.985980944561661	-5.93234716087013e-08	0.0140190557445753	5.87375132740845e-08
2.08929613085404	0.0140190557650039	6.43746657554777e-08	0.985980944560523	-6.50360942278457e-08	0.985980944560523	-6.50360942278457e-08	0.0140190557456295	6.43945947788341e-08
2.29086765276777	0.0140190557661501	7.05766080451873e-08	0.985980944559276	-7.12998603696961e-08	0.985980944559276	-7.12998603696961e-08	0.0140190557467859	7.05974613166165e-08
2.51188643150958	0.0140190557674069	7.73769025177756e-08	0.985980944557908	-7.81679433680981e-08	0.985980944557908	-7.81679433680981e-08	0.0140190557480546	7.7398769245618e-08
2.75422870333817	0.0140190557687858	8.48332771496842e-08	0.985980944556407	-8.56986466245635e-08	0.985980944556407	-8.56986466245635e-08	0.0140190557494464	8.48562551150136e-08
3.01995172040202	0.0140190557702986	9.30090293740036e-08	0.98598094455476	-9.39558985479786e-08	0.98598094455476	-9.39558985479786e-08	0.0140190557509735	9.30332257927411e-08
3.31131121482591	0.0140190557719585	1.01973563446507e-07	0.985980944552953	-1.03009795245196e-07	0.985980944552953	-1.03009795245196e-07	0.014019055752649	1.01999095879941e-07
3.63078054770101	0.0140190557737798	1.11802979335172e-07	0.98598094455097	-1.12937195590084e-07	0.98598094455097	-1.12937195590084e-07	0.0140190557544875	1.11829976974204e-07
3.98107170553497	0.0140190557757785	1.2258071989851e-07	0.985980944548795	-1.23822373590848e-07	0.985980944548795	-1.23822373590848e-07	0.014019055756505	1.22609323783901e-07
4.36515832240166	0.0140190557779719	1.34398277464576e-07	0.985980944546408	-1.35757733944309e-07	0.985980944546408	-1.35757733944309e-07	0.0140190557587191	1.34428642578516e-07
4.78630092322638	0.0140190557803793	1.47355971707894e-07	0.985980944543788	-1.48844596352738e-07	0.985980944543788	-1.48844596352738e-07	0.0140190557611491	1.47388267989026e-07
5.24807460249773	0.0140190557830219	1.61563800966292e-07	0.985980944540913	-1.63194055660596e-07	0.985980944540913	-1.63194055660596e-07	0.0140190557638165	1.61598214752651e-07
5.75439937337157	0.0140190557859189	1.77142375899175e-07	0.98598094453775	-1.78927924401202e-07	0.98598094453775	-1.78927924401202e-07	0.0140190557667417	1.77179111562672e-07
6.30957344480193	0.0140190557891045	1.94223943857549e-07	0.985980944534287	-1.96179769069346e-07	0.985980944534287	-1.96179769069346e-07	0.0140190557699568	1.94263225374283e-07
6.91830970918937	0.0140190557926024	2.12953510774078e-07	0.985980944530484	-2.15096040635401e-07	0.985980944530484	-2.15096040635401e-07	0.014019055773487	2.1299558379495e-07
7.58577575029184	0.0140190557964438	2.33490072634489e-07	0.985980944526309	-2.35837320012959e-07	0.985980944526309	-2.35837320012959e-07	0.0140190557773636	2.33535206516693e-07
8.31763771102671	0.0140190558006629	2.5600796507423e-07	0.985980944521724	-2.58579680674267e-07	0.985980944521724	-2.58579680674267e-07	0.0140190557816214	2.56056455169654e-07
9.1201083935591	0.0140190558052977	2.80698343320969e-07	0.985980944516689	-2.83516183344686e-07	0.985980944516689	-2.83516183344686e-07	0.0140190557862985	2.80750513485631e-07
10	0.01401905581039	3.07770804919436e-07	0.985980944511158	-3.10858514902651e-07	0.985980944511158	-3.10858514902651e-07	0.0140190557914371	3.07827010265318e-07
10.9647819614319	0.014019055815986	3.37455169014006e-07	0.985980944505081	-3.40838785397827e-07	0.985980944505081	-3.40838785397827e-07	0.0140190557970838	3.37515798926736e-07
12.0226443461741	0.0140190558221369	3.70003427293478e-07	0.985980944498404	-3.73711498442423e-07	0.985980944498404	-3.73711498442423e-07	0.0140190558032901	3.70068908741578e-07
13.1825673855641	0.0140190558288991	4.0569188315976e-07	0.985980944491065	-4.09755711702435e-07	0.985980944491065	-4.09755711702435e-07	0.0140190558101129	4.05762684323655e-07
14.4543977074593	0.0140190558363354	4.44823497279987e-07	0.985980944482997	-4.49277405829319e-07	0.985980944482997	-4.49277405829319e-07	0.0140190558176155	4.449001315321e-07
15.8489319246111	0.0140190558445151	4.87730459433673e-07	0.985980944474127	-4.92612081942082e-07	0.985980944474127	-4.92612081942082e-07	0.0140190558258676	4.8781348970164e-07
17.3780082874938	0.0140190558535152	5.34777008487468e-07	0.98598094446437	-5.40127609709961e-07	0.98598094446437	-5.40127609709961e-07	0.0140190558349469	5.34867052041519e-07
19.0546071796325	0.0140190558634211	5.86362524436558e-07	0.985980944453637	-5.9222735021321e-07	0.985980944453637	-5.9222735021321e-07	0.0140190558449393	5.86460258138243e-07
20.8929613085404	0.0140190558743279	6.42924918761271e-07	0.985980944441824	-6.49353580092168e-07	0.985980944441824	-6.49353580092168e-07	0.0140190558559405	6.43031084820124e-07
22.9086765276777	0.0140190558863412	7.0494435188002e-07	0.98598094442882	-7.11991246051953e-07	0.98598094442882	-7.11991246051953e-07	0.0140190558680568	7.05059764166945e-07
25.1188643150958	0.0140190558995787	7.72947309255903e-07	0.985980944414498	-7.80672081596715e-07	0.985980944414498	-7.80672081596715e-07	0.0140190558814068	7.73072860227658e-07
27.5422870333817	0.0140190559141717	8.47511070760546e-07	0.98598094439872	-8.55979120937432e-07	0.98598094439872	-8.55979120937432e-07	0.0140190558961224	8.47647739053844e-07
30.1995172040202	0.0140190559302668	9.29268611234718e-07	0.98598094438133	-9.38551648396109e-07	0.98598094438133	-9.38551648396109e-07	0.0140190559123513	9.29417469995561e-07
33.1131121482591	0.014019055948028	1.01891397384411e-06	0.985980944362152	-1.02909062531744e-06	0.985980944362152	-1.02909062531744e-06	0.0140190559302581	1.01907619986732e-06
36.3078054770101	0.0140190559676389	1.1172081618678e-06	0.985980944340994	-1.12836464056578e-06	0.985980944340994	-1.12836464056578e-06	0.0140190559500275	1.11738504560616e-06
39.8107170553497	0.0140190559893054	1.22498559888099e-06	0.985980944317638	-1.23721643510005e-06	0.985980944317638	-1.23721643510005e-06	0.0140190559718665	1.22517855544544e-06
43.6515832240166	0.0140190560132589	1.34316121224237e-06	0.98598094429184	-1.3565700560565e-06	0.98598094429184	-1.3565700560565e-06	0.0140190559960075	1.34337179345415e-06
47.8630092322639	0.0140190560397598	1.47273819996979e-06	0.985980944263326	-1.48743870101943e-06	0.985980944263326	-1.48743870101943e-06	0.014019056022712	1.47296810758353e-06
52.4807460249773	0.0140190560691014	1.61481654695639e-06	0.985980944231789	-1.63093331876785e-06	0.985980944231789	-1.63093331876785e-06	0.0140190560522746	1.61506764716506e-06
57.5439937337157	0.0140190561016153	1.77060236282274e-06	0.985980944196889	-1.78827204034173e-06	0.985980944196889	-1.78827204034173e-06	0.0140190560850309	1.77087670152969e-06
63.0957344480193	0.0140190561376848	1.94141811874691e-06	0.985980944158218	-1.96079052278774e-06	0.985980944158218	-1.96079052278774e-06	0.0140190561213506	1.94171794323784e-06
69.1830970918936	0.0140190561777147	2.12871388343103e-06	0.985980944115343	-2.14995328112336e-06	0.985980944115343	-2.14995328112336e-06	0.0140190561616635	2.12904165119842e-06
75.8577575029184	0.0140190562222004	2.33407961553499e-06	0.985980944067763	-2.3573661257814e-06	0.985980944067763	-2.3573661257814e-06	0.0140190562064536	2.33443802643205e-06
83.1763771102671	0.01401905627169	2.55925867585876e-06	0.985980944014909	-2.5847897934804e-06	0.985980944014909	-2.5847897934804e-06	0.0140190562562715	2.55965068964587e-06
91.201083935591	0.0140190563268115	2.80616261831778e-06	0.985980943956135	-2.83415489194045e-06	0.985980943956135	-2.83415489194045e-06	0.0140190563117445	2.80659148401724e-06
100	0.0140190563882788	3.07688742649977e-06	0.985980943890703	-3.10757829325001e-06	0.985980943890703	-3.10757829325001e-06	0.0140190563735895	3.0773567041351e-06
109.647819614319	0.0140190564569112	3.37373129773478e-06	0.985980943817772	-3.40738110006724e-06	0.985980943817772	-3.40738110006724e-06	0.0140190564426266	3.37424489198333e-06
120.226443461741	0.0140190565336487	3.69921415664346e-06	0.985980943736379	-3.73610835139668e-06	0.985980943736379	-3.73610835139668e-06	0.0140190565197969	3.69977634950199e-06
131.825673855641	0.0140190566195715	4.05609904526151e-06	0.985980943645419	-4.09655062734458e-06	0.985980943645419	-4.09655062734458e-06	0.0140190566061813	4.05671453370776e-06
144.543977074593	0.0140190567159242	4.44741558063849e-06	0.985980943543624	-4.49176773818651e-06	0.985980943543624	-4.49176773818651e-06	0.0140190567030251	4.44808951599421e-06
158.489319246111	0.0140190568241434	4.8764856726731e-06	0.985980943429534	-4.92511469957464e-06	0.985980943429534	-4.92511469957464e-06	0.014019056811765	4.87722370475641e-06
173.780082874938	0.0140190569458905	5.34695172434169e-06	0.985980943301464	-5.40027021357646e-06	0.985980943301464	-5.40027021357646e-06	0.0140190569340621	5.34776004970048e-06
190.546071796325	0.0140190570830905	5.86280755241981e-06	0.985980943157466	-5.92126789677258e-06	0.985980943157466	-5.92126789677258e-06	0.0140190570718409	5.86369296726371e-06
208.929613085404	0.0140190572379782	6.42843229154009e-06	0.985980942995284	-6.49253052223038e-06	0.985980942995284	-6.49253052223038e-06	0.0140190572273349	6.42940224966924e-06
229.086765276777	0.0140190574131526	7.04862756883724e-06	0.985980942812301	-7.118907564471e-06	0.985980942812301	-7.118907564471e-06	0.0140190574031415	7.04969024546412e-06
251.188643150958	0.0140190576116418	7.7286582654713e-06	0.985980942605471	-7.80571636709775e-06	0.985980942605471	-7.80571636709775e-06	0.014019057602286	7.72982262715882e-06
275.422870333817	0.0140190578369793	8.47429721102187e-06	0.985980942371249	-8.55878728117293e-06	0.985980942371249	-8.55878728117293e-06	0.0140190578282989	8.47557309202408e-06
301.995172040202	0.0140190580932959	9.29187418882762e-06	0.985980942105498	-9.38451315676795e-06	0.985980942105498	-9.38451315676795e-06	0.0140190580853065	9.29327237547805e-06
331.131121482591	0.0140190583854275	1.01883296709491e-05	0.985980941803381	-1.02899036229161e-05	0.985980941803381	-1.02899036229161e-05	0.0140190583781392	1.01898619931263e-05
363.078054770101	0.014019058719043	1.117127373617e-05	0.985980941459236	-1.12826445725459e-05	0.985980941459236	-1.12826445725459e-05	0.0140190587124599	1.11729531676179e-05
398.107170553497	0.0140190591007979	1.22490506722313e-05	0.985980941066424	-1.23711634277744e-05	0.985980941066424	-1.23711634277744e-05	0.0140190590949172	1.22508914407691e-05
436.515832240166	0.0140190595385163	1.34308098100979e-05	0.985980940617149	-1.35647006674324e-05	0.985980940617149	-1.35647006674324e-05	0.0140190595333265	1.34328275170044e-05
478.630092322639	0.0140190600414059	1.47265831915319e-05	0.985980940102246	-1.48733882730706e-05	0.985980940102246	-1.48733882730706e-05	0.014019060036887	1.47287949465142e-05
524.807460249773	0.0140190606203178	1.61473707291012e-05	0.98598093951092	-1.63083357357596e-05	0.98598093951092	-1.63083357357596e-05	0.0140190606164387	1.61497952956732e-05
575.439937337157	0.0140190612880504	1.77052335845057e-05	0.985980938830451	-1.78817243651122e-05	0.985980938830451	-1.78817243651122e-05	0.0140190612847685	1.77078915384024e-05
630.957344480193	0.014019062059715	1.94133965532371e-05	0.985980938045831	-1.96069106960271e-05	0.985980938045831	-1.96069106960271e-05	0.0140190620569751	1.94163104560504e-05
691.830970918936	0.0140190629531789	2.12863603195336e-05	0.985980937139336	-2.14985398687703e-05	0.985980937139336	-2.14985398687703e-05	0.0140190629509031	2.12895549150963e-05
758.577575029184	0.0140190639895678	2.33400245398412e-05	0.985980936089973	-2.35726699268695e-05	0.985980936089973	-2.35726699268695e-05	0.0140190639876621	2.33435269679151e-05
831.763771102671	0.0140190651939555	2.55918227838073e-05	0.985980934873007	-2.58469081776482e-05	0.985980934873007	-2.58469081776482e-05	0.0140190651922411	2.55956628474205e-05
912.01083935591	0.0140190665963806	2.80608704129464e-05	0.985980933459162	-2.83405606883741e-05	0.985980933459162	-2.83405606883741e-05	0.0140190665942772	2.80650809443781e-05
1000	0.0140190682563615	3.07681383771455e-05	0.985980931751365	-3.1074770864582e-05	0.985980931751365	-3.1074770864582e-05	0.01401906825628	3.07727531194947e-05
1096.47819614319	0.0140190701372656	3.37365769106426e-05	0.98598092989346	-3.40728242573837e-05	0.98598092989346	-3.40728242573837e-05	0.0140190701370317	3.37416377428257e-05
1202.26443461741	0.0140190723690429	3.69914154173904e-05	0.985980927651979	-3.73600965569489e-05	0.985980927651979	-3.73600965569489e-05	0.0140190723688498	3.69969642991666e-05
1318.25673855641	0.0140190749827043	4.05602738370034e-05	0.985980925030026	-4.09645179870075e-05	0.985980925030026	-4.09645179870075e-05	0.0140190749825708	4.05663578811774e-05
1445.43977074593	0.0140190780477192	4.44734474269104e-05	0.985980921958445	-4.49166863069869e-05	0.985980921958445	-4.49166863069869e-05	0.0140190780476646	4.44801183013394e-05
1584.89319246111	0.0140190816465615	4.8764153792992e-05	0.985980918355008	-4.92501514375086e-05	0.985980918355008	-4.92501514375086e-05	0.0140190816466029	4.87714681673934e-05
1737.80082874938	0.014019085877172	5.34688143677616e-05	0.985980914121774	-5.40017006382665e-05	0.985980914121774	-5.40017006382665e-05	0.0140190858773199	5.34768344118975e-05
1905.46071796325	0.0140190908560904	5.86273621433391e-05	0.985980909141366	-5.92116718276879e-05	0.985980909141366	-5.92116718276879e-05	0.0140190908563438	5.86361560969478e-05
2089.29613085404	0.0140190967220996	6.42836064964156e-05	0.985980903269523	-6.492429852885e-05	0.985980903269523	-6.492429852885e-05	0.0140190967249136	6.42932182348366e-05
2290.86765276777	0.0140191036895776	7.04854344050749e-05	0.985980896309613	-7.11880826879498e-05	0.985980896309613	-7.11880826879498e-05	0.014019103689817	7.04960112565603e-05
2511.88643150958	0.0140191120441699	7.72857965768118e-05	0.985980887998221	-7.80560992780989e-05	0.985980887998221	-7.80560992780989e-05	0.0140191120272799	7.72973881336992e-05
2754.22870333817	0.0140191216302786	8.47422433129476e-05	0.985980878327123	-8.55865676785765e-05	0.985980878327123	-8.55865676785765e-05	0.0140191216258278	8.47549430272169e-05
