!Generated from: C:\SIPIProj\Olympus\Xtract\Run_20240725_143525\SimFile\SIM1_P1V8__20240725_143525.spd
! Port_1::P1V8
! Port_2::P1V8
! Port_3::P1V8
!
!Layout Workbench Version: 23.1.2.10131.459628   200
!Computer Host Name: YANSHENG-LT
!
!TouchstoneFormatFlag = 1
! GNDNET GND
! NETSLIST P1V8
! Port 1 = U1-N6 P1V8
! Port 2 = U1-J12 P1V8
! Port 3 = PL8-2 P1V8
!
#	Hz	S	RI	R	0.1
0	-0.315494646990646	0	0.671613967334746	0	0.643880679682678	0
			0.671613967334746	0	-0.317058491620666	0	0.645444524239597	0
			0.643880679682678	0	0.645444524239597	0	-0.289325203923321	0
0.1	-0.315494646990433	4.43162440529733e-09	0.671613967334621	2.58412481926373e-10	0.643880679682621	-4.45733085210679e-09
			0.671613967334621	2.58412481926373e-10	-0.317058491620501	3.80989866651529e-09	0.64544452423959	-3.96264266196329e-09
			0.643880679682621	-4.45733085210679e-09	0.64544452423959	-3.96264266196329e-09	-0.289325203923249	8.42580310888917e-09
0.120226443461741	-0.31549464699039	5.27758835114e-09	0.671613967334589	3.13613723756669e-10	0.643880679682606	-5.36460423015552e-09
			0.671613967334589	3.13613723756669e-10	-0.317058491620463	4.54749702092446e-09	0.645444524239589	-4.76157746613423e-09
			0.643880679682606	-5.36460423015552e-09	0.645444524239589	-4.76157746613423e-09	-0.289325203923234	1.01260611904876e-08
0.131825673855641	-0.315494646990366	5.76272212004776e-09	0.671613967334573	3.45269858784067e-10	0.643880679682599	-5.88489704411194e-09
			0.671613967334573	3.45269858784067e-10	-0.317058491620444	4.97048645601019e-09	0.645444524239588	-5.21974148873936e-09
			0.643880679682599	-5.88489704411194e-09	0.645444524239588	-5.21974148873936e-09	-0.289325203923225	1.11011058323327e-08
0.144543977074593	-0.315494646990339	6.29466072012045e-09	0.671613967334557	3.79980120556282e-10	0.643880679682591	-6.45538677019937e-09
			0.671613967334557	3.79980120556282e-10	-0.317058491620422	5.43428514890986e-09	0.645444524239587	-5.72210834977822e-09
			0.643880679682591	-6.45538677019937e-09	0.645444524239587	-5.72210834977822e-09	-0.289325203923216	1.21702210224041e-08
0.158489319246111	-0.315494646990309	6.87791979709072e-09	0.671613967334539	4.18039165700418e-10	0.643880679682583	-7.08091631594697e-09
			0.671613967334539	4.18039165700418e-10	-0.317058491620399	5.94283030322944e-09	0.645444524239586	-6.27294265936632e-09
			0.643880679682583	-7.08091631594697e-09	0.645444524239586	-6.27294265936632e-09	-0.289325203923205	1.33424825175092e-08
0.173780082874938	-0.315494646990276	7.51745065805633e-09	0.671613967334519	4.5977007878102e-10	0.643880679682574	-7.76679582386531e-09
			0.671613967334519	4.5977007878102e-10	-0.317058491620373	6.50043897688191e-09	0.645444524239585	-6.87692046951018e-09
			0.643880679682574	-7.76679582386531e-09	0.645444524239585	-6.87692046951018e-09	-0.289325203923194	1.46278416871018e-08
0.190546071796325	-0.315494646990241	8.21868230330495e-09	0.671613967334497	5.05527114975698e-10	0.643880679682564	-8.51884774943447e-09
			0.671613967334497	5.05527114975698e-10	-0.317058491620345	7.11184472974682e-09	0.645444524239584	-7.53916896927871e-09
			0.643880679682564	-8.51884774943447e-09	0.645444524239584	-7.53916896927871e-09	-0.289325203923181	1.60372099908109e-08
0.208929613085404	-0.315494646990202	8.98756751329363e-09	0.671613967334473	5.55698707359061e-10	0.643880679682552	-9.34345628813468e-09
			0.671613967334473	5.55698707359061e-10	-0.317058491620314	7.78223780702969e-09	0.645444524239582	-8.26531000969316e-09
			0.643880679682552	-9.34345628813468e-09	0.645444524239582	-8.26531000969316e-09	-0.289325203923168	1.7582551606209e-08
0.229086765276777	-0.315494646990159	9.83063338201817e-09	0.671613967334447	6.10710764323868e-10	0.64388067968254	-1.02476215711083e-08
			0.671613967334447	6.10710764323868e-10	-0.31705849162028	8.51730919944036e-09	0.64544452423958	-9.06150782782002e-09
			0.64388067968254	-1.02476215711083e-08	0.64544452423958	-9.06150782782002e-09	-0.289325203923152	1.92769849931407e-08
0.251188643150958	-0.315494646990112	1.07550367257507e-08	0.671613967334418	6.71030285131254e-10	0.643880679682526	-1.12390190895206e-08
			0.671613967334418	6.71030285131254e-10	-0.317058491620243	9.32329895421756e-09	0.645444524239579	-9.93452137519805e-09
			0.643880679682526	-1.12390190895206e-08	0.645444524239579	-9.93452137519805e-09	-0.289325203923135	2.11348942567945e-08
0.275422870333817	-0.31549464699006	1.17686248375136e-08	0.671613967334387	7.37169324282579e-10	0.643880679682512	-1.23260648520767e-08
			0.671613967334387	7.37169324282579e-10	-0.317058491620202	1.02070491471148e-08	0.645444524239576	-1.08917616948179e-08
			0.643880679682512	-1.23260648520767e-08	0.645444524239576	-1.08917616948179e-08	-0.289325203923117	2.31720512548827e-08
0.301995172040202	-0.315494646990004	1.28800021030358e-08	0.671613967334353	8.096893383665e-10	0.643880679682495	-1.35179868288169e-08
			0.671613967334353	8.096893383665e-10	-0.317058491620157	1.11760619650282e-08	0.645444524239574	-1.19413548337287e-08
			0.643880679682495	-1.35179868288169e-08	0.645444524239574	-1.19413548337287e-08	-0.289325203923096	2.54057494855023e-08
0.331131121482591	-0.315494646989942	1.40986030436983e-08	0.671613967334315	8.89205952281754e-10	0.643880679682477	-1.48249032876812e-08
			0.671613967334315	8.89205952281754e-10	-0.317058491620108	1.22385633923316e-08	0.645444524239571	-1.309221082534e-08
			0.643880679682477	-1.48249032876812e-08	0.645444524239571	-1.309221082534e-08	-0.289325203923074	2.78549508922549e-08
0.363078054770101	-0.315494646989874	1.54347724065317e-08	0.671613967334274	9.7639418529624e-10	0.643880679682457	-1.6257908688844e-08
			0.671613967334274	9.7639418529624e-10	-0.317058491620054	1.34035730415565e-08	0.645444524239568	-1.43540993270116e-08
			0.643880679682457	-1.6257908688844e-08	0.645444524239568	-1.43540993270116e-08	-0.289325203923049	3.05404468328601e-08
0.398107170553497	-0.315494646989799	1.68998529811541e-08	0.671613967334229	1.0719941667177e-09	0.643880679682435	-1.7829167865979e-08
			0.671613967334229	1.0719941667177e-09	-0.317058491619995	1.46809807212083e-08	0.645444524239565	-1.5737732555021e-08
			0.643880679682435	-1.7829167865979e-08	0.645444524239565	-1.5737732555021e-08	-0.289325203923021	3.34850345777302e-08
0.436515832240166	-0.315494646989717	1.85062818891314e-08	0.67161396733418	1.17681747812157e-09	0.643880679682411	-1.95520192939625e-08
			0.67161396733418	1.17681747812157e-09	-0.31705849161993	1.60816303907111e-08	0.645444524239561	-1.72548562209476e-08
			0.643880679682411	-1.95520192939625e-08	0.645444524239561	-1.72548562209476e-08	-0.289325203922991	3.67137108368093e-08
0.478630092322638	-0.315494646989628	2.02676961631618e-08	0.671613967334126	1.29175395290342e-09	0.643880679682384	-2.14410883196581e-08
			0.671613967334126	1.29175395290342e-09	-0.317058491619859	1.76174122151731e-08	0.645444524239556	-1.89183492414351e-08
			0.643880679682384	-2.14410883196581e-08	0.645444524239556	-1.89183492414351e-08	-0.289325203922957	4.02538839575335e-08
0.524807460249773	-0.315494646989529	2.21990485123549e-08	0.671613967334068	1.4177792906965e-09	0.643880679682355	-2.35124113170033e-08
			0.671613967334068	1.4177792906965e-09	-0.317058491619781	1.93013635014326e-08	0.645444524239551	-2.0742333067771e-08
			0.643880679682355	-2.35124113170033e-08	0.645444524239551	-2.0742333067771e-08	-0.289325203922919	4.41356065952663e-08
0.575439937337157	-0.315494646989421	2.43167342563365e-08	0.671613967334003	1.55596332484862e-09	0.643880679682322	-2.57835718203539e-08
			0.671613967334003	1.55596332484862e-09	-0.317058491619696	2.11477793722318e-08	0.645444524239545	-2.27422915613751e-08
			0.643880679682322	-2.57835718203539e-08	0.645444524239545	-2.27422915613751e-08	-0.289325203922877	4.839183083136e-08
0.630957344480193	-0.315494646989303	2.66387305057334e-08	0.671613967333933	1.70747910426771e-09	0.643880679682286	-2.82738497917287e-08
			0.671613967333933	1.70747910426771e-09	-0.317058491619602	2.31723341180385e-08	0.645444524239539	-2.49352024452135e-08
			0.643880679682286	-2.82738497917287e-08	0.645444524239539	-2.49352024452135e-08	-0.289325203922831	5.30586879045463e-08
0.691830970918936	-0.315494646989173	2.91847487705433e-08	0.671613967333857	1.87361285146643e-09	0.643880679682246	-3.10043852890867e-08
			0.671613967333857	1.87361285146643e-09	-0.317058491619499	2.53922142566746e-08	0.645444524239531	-2.73396814153022e-08
			0.643880679682246	-3.10043852890867e-08	0.645444524239531	-2.73396814153022e-08	-0.28932520392278	5.8175794930308e-08
0.758577575029184	-0.31549464698903	3.19764022918915e-08	0.671613967333773	2.05577488133953e-09	0.643880679682202	-3.39983579250253e-08
			0.671613967333773	2.05577488133953e-09	-0.317058491619386	2.78262644303002e-08	0.645444524239522	-2.99761401789391e-08
			0.643880679682202	-3.39983579250253e-08	0.645444524239522	-2.99761401789391e-08	-0.289325203922722	6.37865912119827e-08
0.831763771102671	-0.315494646988874	3.50373895176606e-08	0.671613967333682	2.2555115733635e-09	0.643880679682152	-3.72811836393285e-08
			0.671613967333682	2.2555115733635e-09	-0.317058491619262	3.04951473782789e-08	0.645444524239512	-3.28669597281175e-08
			0.643880679682152	-3.72811836393285e-08	0.645444524239512	-3.28669597281175e-08	-0.289325203922658	6.99387069985555e-08
0.91201083935591	-0.315494646988702	3.83936952795249e-08	0.671613967333582	2.47451849885057e-09	0.643880679682098	-4.08807304557748e-08
			0.671613967333582	2.47451849885057e-09	-0.317058491619126	3.34215193439413e-08	0.6454445242395	-3.60366803325601e-08
			0.643880679682098	-4.08807304557748e-08	0.6454445242395	-3.60366803325601e-08	-0.289325203922587	7.66843678195393e-08
1	-0.315494646988514	4.2073811379195e-08	0.671613967333473	2.71465481469397e-09	0.643880679682038	-4.48275550547721e-08
			0.671613967333473	2.71465481469397e-09	-0.317058491618977	3.66302224042812e-08	0.645444524239486	-3.95122098629384e-08
			0.643880679682038	-4.48275550547721e-08	0.645444524239486	-3.95122098629384e-08	-0.289325203922508	8.40808378293557e-08
1.09647819614319	-0.315494646988307	4.61089784564351e-08	0.671613967333355	2.97795904579301e-09	0.64388067968197	-4.91551621700922e-08
			0.671613967333355	2.97795904579301e-09	-0.317058491618813	4.01484953552793e-08	0.64544452423947	-4.33230522127398e-08
			0.64388067968197	-4.91551621700922e-08	0.64544452423947	-4.33230522127398e-08	-0.289325203922419	9.21909059247826e-08
1.20226443461741	-0.31549464698808	5.05334511920854e-08	0.671613967333225	3.26666639013451e-09	0.643880679681896	-5.39002890117332e-08
			0.671613967333225	3.26666639013451e-09	-0.317058491618633	4.40062049430711e-08	0.645444524239452	-4.75015577578642e-08
			0.643880679681896	-5.39002890117332e-08	0.645444524239452	-4.75015577578642e-08	-0.289325203922319	1.01083418762138e-07
1.31825673855641	-0.315494646987831	5.53847890974114e-08	0.671613967333085	3.58322769343301e-09	0.643880679681813	-5.91032171293846e-08
			0.671613967333085	3.58322769343301e-09	-0.317058491618436	4.82360994038883e-08	0.64544452423943	-5.20831979801112e-08
			0.643880679681813	-5.91032171293846e-08	0.64544452423943	-5.20831979801112e-08	-0.289325203922207	1.10833865239673e-07
1.44543977074593	-0.315494646987558	6.07041753583065e-08	0.671613967332932	3.93033025440511e-09	0.64388067968172	-6.4808114363715e-08
			0.671613967332932	3.93033025440511e-09	-0.317058491618219	5.28740864650869e-08	0.645444524239405	-5.71068665858439e-08
			0.64388067968172	-6.4808114363715e-08	0.645444524239405	-5.71068665858439e-08	-0.289325203922081	1.21525017176208e-07
1.58489319246111	-0.315494646987258	6.65367664410332e-08	0.671613967332766	4.31092063729291e-09	0.643880679681616	-7.10634097894505e-08
			0.671613967332766	4.31092063729291e-09	-0.317058491617981	5.79595381672258e-08	0.645444524239376	-6.26152096760396e-08
			0.643880679681616	-7.10634097894505e-08	0.645444524239376	-6.26152096760396e-08	-0.289325203921939	1.3324763216734e-07
1.73780082874938	-0.315494646986929	7.2932075427326e-08	0.671613967332586	4.72822968529129e-09	0.6438806796815	-7.79222048304829e-08
			0.671613967332586	4.72822968529129e-09	-0.31705849161772	6.35356250948446e-08	0.645444524239341	-6.86549877705494e-08
			0.6438806796815	-7.79222048304829e-08	0.645444524239341	-6.86549877705494e-08	-0.289325203921779	1.46101223908309e-07
1.90546071796325	-0.315494646986567	7.99443923200496e-08	0.671613967332391	5.18579994721665e-09	0.64388067968137	-8.54427240403194e-08
			0.671613967332391	5.18579994721665e-09	-0.317058491617433	6.96496828532419e-08	0.645444524239301	-7.52774727598054e-08
			0.64388067968137	-8.54427240403194e-08	0.645444524239301	-7.52774727598054e-08	-0.289325203921598	1.60194906996263e-07
2.08929613085404	-0.31549464698617	8.7633244963925e-08	0.671613967332179	5.68751575024071e-09	0.643880679681225	-9.36888093722093e-08
			0.671613967332179	5.68751575024071e-09	-0.317058491617118	7.63536139022936e-08	0.645444524239253	-8.25388831537113e-08
			0.643880679681225	-9.36888093722093e-08	0.645444524239253	-8.25388831537113e-08	-0.289325203921394	1.7564832320798e-07
2.29086765276777	-0.315494646985733	9.60639043063267e-08	0.67161396733195	6.23763617397464e-09	0.643880679681061	-1.02730462135707e-07
			0.67161396733195	6.23763617397464e-09	-0.317058491616771	8.37043281584995e-08	0.645444524239197	-9.05008613225605e-08
			0.643880679681061	-1.02730462135707e-07	0.645444524239197	-9.05008613225605e-08	-0.289325203921162	1.92592657143202e-07
2.51188643150958	-0.315494646985254	1.0530793853262e-07	0.671613967331703	6.84083120581838e-09	0.643880679680876	-1.12644437240223e-07
			0.671613967331703	6.84083120581838e-09	-0.317058491616391	9.17642261055522e-08	0.645444524239131	-9.92309967812946e-08
			0.643880679680876	-1.12644437240223e-07	0.645444524239131	-9.92309967812946e-08	-0.289325203920898	2.11171749854987e-07
2.75422870333817	-0.315494646984727	1.1544382060028e-07	0.671613967331436	7.50222138449473e-09	0.643880679680669	-1.23514894770107e-07
			0.671613967331436	7.50222138449473e-09	-0.317058491615973	1.00601728514579e-07	0.645444524239053	-1.08803399959283e-07
			0.643880679680669	-1.23514894770107e-07	0.645444524239053	-1.08803399959283e-07	-0.289325203920597	2.31543319923171e-07
3.01995172040202	-0.315494646984148	1.26557594399395e-07	0.671613967331149	8.22742126829878e-09	0.643880679680434	-1.35434114422486e-07
			0.671613967331149	8.22742126829878e-09	-0.317058491615513	1.10291857270884e-07	0.645444524238961	-1.19299331329402e-07
			0.643880679680434	-1.35434114422486e-07	0.645444524238961	-1.19299331329402e-07	-0.289325203920254	2.53880302330798e-07
3.31131121482591	-0.315494646983512	1.38743605183243e-07	0.671613967330841	9.02258709706024e-09	0.643880679680168	-1.48503278872923e-07
			0.671613967330841	9.02258709706024e-09	-0.317058491615008	1.20916872237859e-07	0.645444524238852	-1.30807891219023e-07
			0.643880679680168	-1.48503278872923e-07	0.645444524238852	-1.30807891219023e-07	-0.289325203919861	2.78372316516845e-07
3.63078054770101	-0.315494646982812	1.52105300469629e-07	0.671613967330511	9.8944690524157e-09	0.643880679679867	-1.62833332709615e-07
			0.671613967330511	9.8944690524157e-09	-0.317058491614453	1.32566969564446e-07	0.645444524238722	-1.43426776185777e-07
			0.643880679679867	-1.62833332709615e-07	0.645444524238722	-1.43426776185777e-07	-0.289325203919411	3.05227276062129e-07
3.98107170553497	-0.315494646982043	1.66756108211895e-07	0.671613967330159	1.08504685600221e-08	0.643880679679525	-1.78545924281522e-07
			0.671613967330159	1.08504685600221e-08	-0.317058491613842	1.45341047364116e-07	0.645444524238569	-1.57263108427954e-07
			0.643880679679525	-1.78545924281522e-07	0.645444524238569	-1.57263108427954e-07	-0.289325203918894	3.3467315367518e-07
4.36515832240166	-0.315494646981197	1.82820399694477e-07	0.671613967329784	1.18987011201419e-08	0.643880679679135	-1.95774438326161e-07
			0.671613967329784	1.18987011201419e-08	-0.317058491613169	1.59347545265276e-07	0.645444524238387	-1.72434345068041e-07
			0.643880679679135	-1.95774438326161e-07	0.645444524238387	-1.72434345068041e-07	-0.289325203918299	3.66959916460783e-07
4.78630092322638	-0.315494646980265	2.00434545327112e-07	0.671613967329387	1.30480651999591e-08	0.64388067967869	-2.14665128289599e-07
			0.671613967329387	1.30480651999591e-08	-0.317058491612429	1.747053649601e-07	0.645444524238171	-1.89069275215449e-07
			0.64388067967869	-2.14665128289599e-07	0.645444524238171	-1.89069275215449e-07	-0.289325203917612	4.02361647899733e-07
5.24807460249773	-0.31549464697924	2.19748072300452e-07	0.671613967328967	1.43083177724411e-08	0.643880679678182	-2.35378357916451e-07
			0.671613967328967	1.43083177724411e-08	-0.317058491611614	1.9154487956638e-07	0.645444524237913	-2.07309113409951e-07
			0.643880679678182	-2.35378357916451e-07	0.645444524237913	-2.07309113409951e-07	-0.289325203916819	4.41178874553787e-07
5.75439937337157	-0.315494646978115	2.40924933845405e-07	0.671613967328524	1.5690156961761e-08	0.643880679677601	-2.58089962677682e-07
			0.671613967328524	1.5690156961761e-08	-0.317058491610708	2.10009043018714e-07	0.645444524237608	-2.27308698610834e-07
			0.643880679677601	-2.58089962677682e-07	0.645444524237608	-2.27308698610834e-07	-0.289325203915898	4.83741117396257e-07
6.30957344480193	-0.31549464697687	2.6414490139848e-07	0.671613967328066	1.72053136183783e-08	0.643880679676932	-2.82992741891572e-07
			0.671613967328066	1.72053136183783e-08	-0.31705849160972	2.30254592388219e-07	0.645444524237242	-2.49237807301287e-07
			0.643880679676932	-2.82992741891572e-07	0.645444524237242	-2.49237807301287e-07	-0.289325203914831	5.30409688495896e-07
6.91830970918937	-0.315494646975499	2.89605090131501e-07	0.671613967327593	1.88666494466627e-08	0.643880679676163	-3.10298096254381e-07
			0.671613967327593	1.88666494466627e-08	-0.317058491608631	2.52453396337047e-07	0.645444524236807	-2.73282596826194e-07
			0.643880679676163	-3.10298096254381e-07	0.645444524236807	-2.73282596826194e-07	-0.28932520391359	5.81580759197765e-07
7.58577575029184	-0.315494646973987	3.17521632663612e-07	0.671613967327107	2.06882682071226e-08	0.643880679675276	-3.40237821868987e-07
			0.671613967327107	2.06882682071226e-08	-0.317058491607429	2.76793901067376e-07	0.645444524236287	-2.99647184260459e-07
			0.643880679675276	-3.40237821868987e-07	0.645444524236287	-2.99647184260459e-07	-0.289325203912144	6.37688722550851e-07
8.31763771102671	-0.31549464697232	3.48131513723662e-07	0.671613967326617	2.26856331909737e-08	0.643880679674251	-3.73066078114829e-07
			0.671613967326617	2.26856331909737e-08	-0.317058491606102	3.0348273404365e-07	0.645444524235666	-3.28555379516684e-07
			0.643880679674251	-3.73066078114829e-07	0.645444524235666	-3.28555379516684e-07	-0.289325203910456	6.9920988106359e-07
9.1201083935591	-0.315494646970479	3.8169458192911e-07	0.671613967326129	2.48757000601375e-08	0.643880679673065	-4.09061545196235e-07
			0.671613967326129	2.48757000601375e-08	-0.317058491604637	3.32746458986912e-07	0.645444524234924	-3.60252585286935e-07
			0.643880679673065	-4.09061545196235e-07	0.645444524234924	-3.60252585286935e-07	-0.289325203908482	7.6666649005338e-07
10	-0.315494646968446	4.18495755658741e-07	0.671613967325654	2.72770602881616e-08	0.643880679671689	-4.48529789883119e-07
			0.671613967325654	2.72770602881616e-08	-0.317058491603018	3.64833495881955e-07	0.645444524234038	-3.95007880270175e-07
			0.643880679671689	-4.48529789883119e-07	0.645444524234038	-3.95007880270175e-07	-0.289325203906168	8.40631191091287e-07
10.9647819614319	-0.3154946469662	4.58847441745211e-07	0.671613967325205	2.99100990718649e-08	0.643880679670089	-4.91805859473009e-07
			0.671613967325205	2.99100990718649e-08	-0.317058491601227	4.00016232977886e-07	0.645444524232979	-4.33116303392199e-07
			0.643880679670089	-4.91805859473009e-07	0.645444524232979	-4.33116303392199e-07	-0.289325203903453	9.21731873177151e-07
