!Generated from: C:\SIPIProj\Olympus\Xtract\Run_20240122_163105\SimFile\SIM1_PE_CPU_RX_L0__20240122_163105.spd
! Port_1::PE_CPU_RX_C_DP<0>
! Port_2::PE_CPU_RX_C_DN<0>
! Port_3::PE_CPU_RX_DP<0>
! Port_4::PE_CPU_RX_DN<0>
!
!Layout Workbench Version: 23.1.2.10131.459628   200
!Computer Host Name: YS-LT
!
!TouchstoneFormatFlag = 1
! GNDNET
! NETSLIST PE_CPU_RX_C_DN<0>, PE_CPU_RX_C_DP<0>, PE_CPU_RX_DN<0>, PE_CPU_RX_DP<0>
! Port 1 = U1_SBALL-AA1 PE_CPU_RX_C_DP<0>
! Port 2 = U1_SBALL-AB1 PE_CPU_RX_C_DN<0>
! Port 3 = J5_SBUMP-A16 PE_CPU_RX_DP<0>
! Port 4 = J5_SBUMP-A17 PE_CPU_RX_DN<0>
!
#	Hz	S	RI	R	50
1000000	0.980222175155913	-0.00193934943002413	0.000561712234066897	0.0013918560963237	0.0197160021998786	-0.01039805692905	0.000191707991163357	-0.000108059512584144
			0.000561712239183933	0.0013918560963237	0.980222737789512	-0.00193956457976691	0.000190966211735469	-0.000108038540034072	0.0197171409796803	-0.010382841729505
			0.0197160021998792	-0.01039805692905	0.0001909662117356	-0.000108038540034072	0.980407688186377	-0.0018713191101359	0.000545683040471648	0.00138294825244728
			0.000191707991162712	-0.000108059512584144	0.0197171409796804	-0.010382841729505	0.000545683040471632	0.00138294825244728	0.980403551748432	-0.00187352996088751
101000000	-0.0498185347301067	-0.0734898044482687	0.0521786571602644	0.0507593508692653	0.698202465340988	-0.664896398908683	-0.00203625236094113	-0.00876200716919665
			0.0521786571602644	0.0507593508692653	-0.0497592494087991	-0.0736907726428208	-0.00205019706282366	-0.00873400249636838	0.698741280917055	-0.664346279885103
			0.698202465340988	-0.664896398908683	-0.00205019706282366	-0.00873400249636838	-0.0428744358310973	-0.0809550067853126	0.0513057686935948	0.0516066538446139
			-0.00203625236094113	-0.00876200716919665	0.698741280917055	-0.664346279885103	0.0513057686935948	0.0516066538446139	-0.0429888229726131	-0.0809873917733144
201000000	-0.132117570093428	-0.0226557714823447	0.0992413233450014	0.0103087307827792	0.0835751716353216	-0.934087389962954	-0.0256629721814528	-0.0152639512240072
			0.0992413233450014	0.0103087307827792	-0.1319971027566	-0.0232367307922381	-0.0256291447854898	-0.0151820764056298	0.085075462823771	-0.933988983245806
			0.0835751716353216	-0.934087389962954	-0.0256291447854898	-0.0151820764056298	-0.130207602503775	-0.0519904711220766	0.0982576359526748	0.0137592397842206
			-0.0256629721814528	-0.0152639512240072	0.085075462823771	-0.933988983245806	0.0982576359526748	0.0137592397842206	-0.130128847257899	-0.051862119309418
301000000	-0.0960489275850886	0.0618809675012677	0.0667524340201646	-0.0384238057258022	-0.539319303460136	-0.752006684233239	-0.0457921573647388	0.0209086507517715
			0.0667524340201646	-0.0384238057258022	-0.0960773033000431	0.0609141506833529	-0.0456735233411141	0.0209931939966831	-0.53761019333731	-0.753350016130319
			-0.539319303460136	-0.752006684233239	-0.0456735233411141	0.0209931939966831	-0.118032414196232	0.0296077930016587	0.0683393856795963	-0.032742951631873
			-0.0457921573647388	0.0209086507517715	-0.53761019333731	-0.753350016130319	0.0683393856795963	-0.032742951631873	-0.117485669928569	0.0294066443043867
401000000	-0.0129899736203584	0.0372356877497001	0.0115460199205834	-0.0117611465730375	-0.896483011363718	-0.208779045251338	-0.0157139210237051	0.0593744414844749
			0.0115460199205834	-0.0117611465730375	-0.0132539096002261	0.0360208737039609	-0.0154579029239667	0.0594118439237232	-0.895933233487696	-0.211505932044925
			-0.896483011363718	-0.208779045251338	-0.0154579029239667	0.0594118439237232	-0.0359854990267648	0.0278944830934548	0.0160872288185917	-0.00863964087584579
			-0.0157139210237051	0.0593744414844749	-0.895933233487696	-0.211505932044925	0.0160872288185917	-0.00863964087584579	-0.0355612677197587	0.0268882364284826
501000000	-0.0337459155208945	-0.043745188599406	0.0305220855984848	0.0481146299875589	-0.79732931884802	0.43310355238882	0.0286423764551656	0.0606054650386142
			0.0305220855984848	0.0481146299875589	-0.0343169044843433	-0.0450538543012414	0.0290206797344556	0.0603812349421191	-0.798938865618877	0.430081002964798
			-0.79732931884802	0.43310355238882	0.0290206797344556	0.0603812349421191	-0.0243925350920682	-0.055610488801434	0.0310230522656561	0.0477575770103
			0.0286423764551656	0.0606054650386142	-0.798938865618877	0.430081002964798	0.0310230522656561	0.0477575770103	-0.0247166455839826	-0.0568285146071723
601000000	-0.115891626285431	-0.0281578478019239	0.0885996848382015	0.0384751535980851	-0.309355748224307	0.831320745353033	0.0711158864531233	0.0391072055966958
			0.0885996848382015	0.0384751535980851	-0.11669747123663	-0.0291716126683315	0.0713107111527307	0.0385100177002357	-0.313201867367768	0.829802694919456
			-0.309355748224307	0.831320745353033	0.0713107111527307	0.0385100177002357	-0.100492687078432	-0.0827009409381466	0.0828295714325449	0.042785399989836
			0.0711158864531233	0.0391072055966958	-0.313201867367768	0.829802694919456	0.0828295714325449	0.042785399989836	-0.100987232184749	-0.0835613177036828
701000000	-0.11334536224407	0.0554510808409038	0.0868459889243383	-0.0169429165555051	0.299923691796666	0.820105167083937	0.0986645371063102	-0.0228698827710028
			0.0868459889243383	-0.0169429165555051	-0.113683218449495	0.0550248242710468	0.0983697936152285	-0.0236754861889258	0.29539791688953	0.821749912091681
			0.299923691796666	0.820105167083937	0.0983697936152285	-0.0236754861889258	-0.138759147583509	-0.0176609880229057	0.0835686638830394	-0.00237678218848228
			0.0986645371063102	-0.0228698827710028	0.29539791688953	0.821749912091681	0.0835686638830394	-0.00237678218848228	-0.139014216759761	-0.0188633984419731
801000000	-0.0324392232649872	0.0667737791528026	0.029055657743359	-0.0224267858203574	0.758584208158707	0.423116771058511	0.0608958573556648	-0.0979039159426801
			0.029055657743359	-0.0224267858203574	-0.0313503653383059	0.0660816973071986	0.0598446937193816	-0.0984927039204868	0.75599304025515	0.427867173894865
			0.758584208158707	0.423116771058511	0.0598446937193816	-0.0984927039204868	-0.0791257752337813	0.0299253086316192	0.038632406412424	-0.00756721246097714
			0.0608958573556648	-0.0979039159426801	0.75599304025515	0.427867173894865	0.038632406412424	-0.00756721246097714	-0.0801740167066028	0.0279493741629694
901000000	-0.0148762488830673	-0.0105269183801101	0.0143566466910355	0.0386363635665478	0.841203129546749	-0.182268958558935	-0.0217334408665788	-0.118862118077893
			0.0143566466910355	0.0386363635665478	-0.0130697953951883	-0.0132364282907905	-0.0232428012877247	-0.118402877512831	0.84245874554246	-0.176429596513978
			0.841203129546749	-0.182268958558935	-0.0232428012877247	-0.118402877512831	-0.0184967557712741	-0.0252505675193445	0.0253758890178782	0.0389169636574754
			-0.0217334408665788	-0.118862118077893	0.84245874554246	-0.176429596513978	0.0253758890178782	0.0389169636574754	-0.0211117743619396	-0.0265828975028245
1001000000	-0.0920531983922673	-0.032013924013189	0.0720897104632659	0.0629769090631587	0.501937236952659	-0.677003389469825	-0.0968386840216963	-0.085944238385143
			0.0720897104632659	0.0629769090631587	-0.0919050756228792	-0.0365053539225412	-0.0976585393934583	-0.0843420834938067	0.507159317601639	-0.673029168465611
			0.501937236952659	-0.677003389469825	-0.0976585393934583	-0.0843420834938067	-0.0600094951669035	-0.0979173183306424	0.0658857960667144	0.0596898941013215
			-0.0968386840216963	-0.085944238385143	0.507159317601639	-0.673029168465611	0.0658857960667144	0.0596898941013215	-0.0626185100897017	-0.0973371742930447
1101000000	-0.125508288235454	0.0444163393907852	0.104024221744669	0.0130368278158758	-0.0570422089330682	-0.823405036637854	-0.146788287302414	-0.00563671166698082
			0.104024221744669	0.0130368278158758	-0.127540509665692	0.0407940790186982	-0.1463751254652	-0.00375077800283657	-0.0499065689119276	-0.823844448496181
			-0.0570422089330682	-0.823405036637854	-0.1463751254652	-0.00375077800283657	-0.136518017927752	-0.0761850684408172	0.0878912614206822	0.0295471333318429
			-0.146788287302414	-0.00563671166698082	-0.0499065689119276	-0.823844448496181	0.0878912614206822	0.0295471333318429	-0.137443268139338	-0.0750866106579292
1201000000	-0.0566473647082496	0.0948749466758021	0.0589807931744773	-0.0263908118736265	-0.571570107614048	-0.584909784329834	-0.12435474355598	0.106151031303637
			0.0589807931744773	-0.0263908118736265	-0.0582375966458159	0.0935778412436599	-0.122685756097886	0.107677729648488	-0.5660391097871	-0.59030527055392
			-0.571570107614048	-0.584909784329834	-0.122685756097886	0.107677729648488	-0.130244102383471	-0.000402487627332341	0.0626280315292176	0.00854439762998557
			-0.12435474355598	0.106151031303637	-0.5660391097871	-0.59030527055392	0.0626280315292176	0.00854439762998557	-0.13057746615837	-0.000761377969470091
1301000000	0.00475113282241181	0.0371918785491427	0.00947841111007459	0.0161276879238314	-0.810985944374747	-0.0658728996016361	-0.0197535849213827	0.170305434408128
			0.00947841111007459	0.0161276879238314	0.00601097872318419	0.0358199463609514	-0.0169099531102331	0.170411105698427	-0.810285418383907	-0.0741659631281503
			-0.810985944374747	-0.0658728996016361	-0.0169099531102331	0.170411105698427	-0.0526655677423241	0.00419914744665216	0.0376719028699461	0.0335147797844362
			-0.0197535849213827	0.170305434408128	-0.810285418383907	-0.0741659631281503	0.0376719028699461	0.0335147797844362	-0.0546894644321452	0.00330932745387826
1401000000	-0.0452598397278186	-0.0281030699740548	0.0449470194712285	0.0746543520078252	-0.641878709837598	0.478595562285195	0.0967331335754942	0.14708977987498
			0.0449470194712285	0.0746543520078252	-0.0431564405411469	-0.0327270169705542	0.0991466197500388	0.144825401598634	-0.647191164035907	0.471451346803416
			-0.641878709837598	0.478595562285195	0.0991466197500388	0.144825401598634	-0.0347500307359538	-0.0744501977980419	0.0583259862411799	0.0638663606287064
			0.0967331335754942	0.14708977987498	-0.647191164035907	0.471451346803416	0.0583259862411799	0.0638663606287064	-0.0376319012880159	-0.0732007873849116
1501000000	-0.116119546030368	0.0143054678479217	0.10683314859663	0.0515338970499461	-0.169259517982121	0.763134877069066	0.179194463411639	0.0577780374755865
			0.10683314859663	0.0515338970499461	-0.116750782716227	0.00779762707982826	0.179425109839687	0.054317306308094	-0.178405758942036	0.761227892532844
			-0.169259517982121	0.763134877069066	0.179425109839687	0.054317306308094	-0.106855160955596	-0.108101216975669	0.0872606027068989	0.0515640959982973
			0.179194463411639	0.0577780374755865	-0.178405758942036	0.761227892532844	0.0872606027068989	0.0515640959982973	-0.10755440023232	-0.10525295868078
1601000000	-0.0886301551946237	0.0938571254060322	0.0952273739817481	-0.0112508041104686	0.357887606828436	0.68061392340963	0.188838058497891	-0.0802708062210054
			0.0952273739817481	-0.0112508041104686	-0.0914682062128848	0.0891396827357397	0.186835485073749	-0.083327178488144	0.349430527131349	0.685310639347431
			0.357887606828436	0.68061392340963	0.186835485073749	-0.083327178488144	-0.15276535087911	-0.0467958897057241	0.0797504876788959	0.028377796951849
			0.188838058497891	-0.0802708062210054	0.349430527131349	0.685310639347431	0.0797504876788959	0.028377796951849	-0.151165182350445	-0.0456044607233535
1701000000	-0.00519129670024428	0.0849788516048557	0.0279662968970314	-0.00862551963677843	0.710400260673166	0.282609293607552	0.0897975664515555	-0.197322430825078
			0.0279662968970314	-0.00862551963677843	-0.00657600954793741	0.0823120569876428	0.0858130862423535	-0.198783627197874	0.706803790030083	0.292011256013808
			0.710400260673166	0.282609293607552	0.0858130862423535	-0.198783627197874	-0.0990381092432826	0.00824586898189397	0.057287675397412	0.0353939735876351
			0.0897975664515555	-0.197322430825078	0.706803790030083	0.292011256013808	0.057287675397412	0.0353939735876351	-0.0984384928630148	0.00683251832081659
1801000000	-0.00197490252018801	0.00399941450776927	0.0198468857626186	0.0643280488393333	0.71320853785436	-0.25345505576324	-0.0642039981014674	-0.211346610818202
			0.0198468857626186	0.0643280488393333	-0.00111359347834166	-0.000270355451878788	-0.0688318362019591	-0.209475740489942	0.716728820579127	-0.243455418726041
			0.71320853785436	-0.25345505576324	-0.0688318362019591	-0.209475740489942	-0.0335958587778229	-0.0391189519068632	0.0614283349911733	0.0615466192567513
			-0.0642039981014674	-0.211346610818202	0.716728820579127	-0.243455418726041	0.0614283349911733	0.0615466192567513	-0.0355910097312556	-0.0398923503357446
1901000000	-0.0809546946679848	-0.00604952195813672	0.0912782390272558	0.0865609569579021	0.361787834938093	-0.644906941535675	-0.189038187635336	-0.126435377531012
			0.0912782390272558	0.0865609569579021	-0.0814853252715765	-0.0129888073009139	-0.191261640322663	-0.121497466953447	0.371414087155909	-0.639477215481188
			0.361787834938093	-0.644906941535675	-0.191261640322663	-0.121497466953447	-0.0685599655002023	-0.114455227972899	0.0862136023936083	0.0627221558430147
			-0.189038187635336	-0.126435377531012	0.371414087155909	-0.639477215481188	0.0862136023936083	0.0627221558430147	-0.0700554556719226	-0.112699918160556
2001000000	-0.105558858302242	0.0708689788560817	0.125448672091651	0.02225981754241	-0.137522419307671	-0.709142680519389	-0.238650387845551	0.0244054313973943
			0.125448672091651	0.02225981754241	-0.109028502566142	0.0644392304157512	-0.237132257836752	0.0297033029491001	-0.126126437376595	-0.711414282543205
			-0.137522419307671	-0.709142680519389	-0.237132257836752	0.0297033029491001	-0.147668287527572	-0.0960557121592052	0.0895098637124406	0.0467629625422542
			-0.238650387845551	0.0244054313973943	-0.126126437376595	-0.711414282543205	0.0895098637124406	0.0467629625422542	-0.146707033979668	-0.0943646738252724
2101000000	-0.0346000432364124	0.116683671708964	0.0703827225457783	-0.0223630135803948	-0.556086793094744	-0.44711174506735	-0.172494771568307	0.187208567031066
			0.0703827225457783	-0.0223630135803948	-0.0379265868760537	0.11364822892568	-0.167375240738094	0.191103095550856	-0.548681081245111	-0.456389629381675
			-0.556086793094744	-0.44711174506735	-0.167375240738094	0.191103095550856	-0.146236144491288	-0.0175123202690576	0.0768992939233636	0.0456691844590312
			-0.172494771568307	0.187208567031066	-0.548681081245111	-0.456389629381675	0.0768992939233636	0.0456691844590312	-0.145194527746441	-0.0185094012770402
2201000000	0.0257631433531012	0.0616162858908492	0.0130878070199768	0.0292959139899637	-0.708538259869192	0.0245501813516573	-0.00335109991722478	0.260563799875607
			0.0130878070199768	0.0292959139899637	0.0266668254183873	0.0595880248512641	0.00429556947665735	0.260105021087953	-0.708820264075928	0.0120399291054031
			-0.708538259869192	0.0245501813516573	0.00429556947665735	0.260105021087953	-0.0675671363021634	-0.00697008650286206	0.076610839457323	0.0595762394102721
			-0.00335109991722478	0.260563799875607	-0.708820264075928	0.0120399291054031	0.076610839457323	0.0595762394102721	-0.0693652117033274	-0.00823069726535447
2301000000	-0.0191126555306425	-0.00477644196813872	0.0568265547560207	0.0953590288275154	-0.507866535877253	0.478649647419105	0.169664564377552	0.204191633948083
			0.0568265547560207	0.0953590288275154	-0.0174047537731036	-0.0124894611806179	0.17493808259192	0.198494584485385	-0.516710898369615	0.469215083068478
			-0.507866535877253	0.478649647419105	0.17493808259192	0.198494584485385	-0.0436144399459975	-0.0832964368768181	0.0925187388728727	0.0648872567301259
			0.169664564377552	0.204191633948083	-0.516710898369615	0.469215083068478	0.0925187388728727	0.0648872567301259	-0.0463558715553545	-0.0812309624953693
2401000000	-0.0866148808127505	0.0324992836149293	0.12803020434506	0.0680948399846633	-0.069560148946099	0.676441068290647	0.26999655385736	0.0510709596626077
			0.12803020434506	0.0680948399846633	-0.0891903729163608	0.0228581244517647	0.270027289170048	0.0432885793721132	-0.0826346284924002	0.675318389364837
			-0.069560148946099	0.676441068290647	0.270027289170048	0.0432885793721132	-0.113872890727778	-0.121094570512824	0.0978908347840824	0.0513743863885031
			0.26999655385736	0.0510709596626077	-0.0826346284924002	0.675318389364837	0.0978908347840824	0.0513743863885031	-0.113020708302641	-0.117251066064836
2501000000	-0.063155375677086	0.106640795556274	0.116617343739857	-0.00454054942707839	0.375526769690786	0.550539114899499	0.250245914177695	-0.142343029899508
			0.116617343739857	-0.00454054942707839	-0.0683187560686981	0.09940404246772	0.245364388887552	-0.148665003998082	0.364801226375854	0.55835980025012
			0.375526769690786	0.550539114899499	0.245364388887552	-0.148665003998082	-0.16256757990249	-0.0602221268883329	0.0873766193092942	0.0505804922898706
			0.250245914177695	-0.142343029899508	0.364801226375854	0.55835980025012	0.0873766193092942	0.0505804922898706	-0.158858616897686	-0.0591580189318025
2601000000	0.0165250516642689	0.103669523571474	0.0421708133069091	-0.00431805182722371	0.636727753321506	0.174292628080485	0.0961945552821755	-0.282975600199367
			0.0421708133069091	-0.00431805182722371	0.0132271629167897	0.0990647095329374	0.0877014235936193	-0.285199820686458	0.633452979909665	0.187300631130807
			0.636727753321506	0.174292628080485	0.0877014235936193	-0.285199820686458	-0.111041906125214	-0.00238565026259298	0.0880551606362915	0.0630454766402409
			0.0961945552821755	-0.282975600199367	0.633452979909665	0.187300631130807	0.0880551606362915	0.0630454766402409	-0.109042527653646	-0.00460893146383266
2701000000	0.029764104961711	0.0278188154364521	0.0301844614893318	0.0737410584655973	0.588105127190274	-0.283603396649557	-0.116125568642628	-0.279644485193132
			0.0301844614893318	0.0737410584655973	0.0291634136677543	0.0214266646006239	-0.124857191281752	-0.275227249776539	0.59413338168143	-0.271097128050797
			0.588105127190274	-0.283603396649557	-0.124857191281752	-0.275227249776539	-0.0450911708291054	-0.0452717624098113	0.102625250241488	0.0656891791323685
			-0.116125568642628	-0.279644485193132	0.59413338168143	-0.271097128050797	0.102625250241488	0.0656891791323685	-0.0460477398543881	-0.0461445839180732
2801000000	-0.0397054899945462	0.00608071631271169	0.105320937866388	0.100895297549404	0.250975688410225	-0.586706906194743	-0.271983032171515	-0.141191443474232
			0.105320937866388	0.100895297549404	-0.0416616983885971	-0.00332512427255862	-0.275582926056427	-0.131523748693194	0.264225366021271	-0.581095888519577
			0.250975688410225	-0.586706906194743	-0.275582926056427	-0.131523748693194	-0.0775224301393041	-0.11718588166357	0.107613272305573	0.0525795398079844
			-0.271983032171515	-0.141191443474232	0.264225366021271	-0.581095888519577	0.107613272305573	0.0525795398079844	-0.0769073210958356	-0.115223841117945
2901000000	-0.0724849046479824	0.0716424970323691	0.146177631948817	0.0373772710720157	-0.185018064879885	-0.593368664499186	-0.309177094173788	0.0678592346059047
			0.146177631948817	0.0373772710720157	-0.0771468048709432	0.0627200233025494	-0.305611124899045	0.0777066841570275	-0.171268266100469	-0.598077353390423
			-0.185018064879885	-0.593368664499186	-0.305611124899045	0.0777066841570275	-0.153704934611766	-0.0975184259570551	0.0951894379119749	0.0499701358838973
			-0.309177094173788	0.0678592346059047	-0.171268266100469	-0.598077353390423	0.0951894379119749	0.0499701358838973	-0.149370781736753	-0.0971490234628976
3001000000	-0.0158331915631329	0.122113975508297	0.0944952642989471	-0.0119826193757916	-0.515069139170036	-0.328321385467226	-0.196585506403562	0.26337892331082
			0.0944952642989471	-0.0119826193757916	-0.0202996695538071	0.115001434105892	-0.187206525783678	0.269394418680764	-0.507739204477683	-0.340775142205595
			-0.515069139170036	-0.328321385467226	-0.187206525783678	0.269394418680764	-0.147519956187131	-0.0181877069938296	0.0948614889601447	0.0652209391804858
