!Generated from: C:\SIPIProj\Olympus\Xtract\Run_20240725_143525\SimFile\SIM1_P0V9__20240725_143525.spd
! Port_1::P0V9
! Port_2::P0V9
!
!Layout Workbench Version: 23.1.2.10131.459628   200
!Computer Host Name: YANSHENG-LT
!
!TouchstoneFormatFlag = 1
! GNDNET GND
! NETSLIST P0V9
! Port 1 = U1-K8 P0V9
! Port 2 = PL11-2 P0V9
!
#	Hz	S	RI	R	0.1
0	0.0105801756520644	0	0.989419824347935	0	0.989419824347935	0	0.0105801756520645	0
0.1	0.0105801756520663	1.79896531757391e-09	0.989419824347934	-1.84237920291629e-09	0.989419824347934	-1.84237920291714e-09	0.0105801756520662	1.8020469615854e-09
0.120226443461741	0.0105801756520637	2.15209043096466e-09	0.989419824347938	-2.20169709929457e-09	0.989419824347934	-2.20169709929372e-09	0.0105801756520638	2.15524244293196e-09
0.131825673855641	0.010580175652063	2.35459659845441e-09	0.989419824347937	-2.40775463353674e-09	0.989419824347937	-2.40775463353674e-09	0.0105801756520628	2.35778896423515e-09
0.144543977074593	0.0105801756520629	2.57664019576684e-09	0.989419824347937	-2.63369222692734e-09	0.989419824347933	-2.63369222692819e-09	0.0105801756520664	2.57987680864376e-09
0.158489319246111	0.0105801756520629	2.82010615902714e-09	0.989419824347937	-2.88142787160206e-09	0.989419824347933	-2.88142787160206e-09	0.0105801756520664	2.82339128787096e-09
0.173780082874938	0.0105801756520637	3.08706127903594e-09	0.989419824347938	-3.15306460466825e-09	0.989419824347934	-3.15306460466825e-09	0.0105801756520638	3.09039960455497e-09
0.190546071796325	0.0105801756520637	3.37977174770164e-09	0.989419824347938	-3.45090835954543e-09	0.989419824347934	-3.45090835954627e-09	0.0105801756520638	3.38316840225147e-09
0.208929613085404	0.010580175652063	3.70072239416629e-09	0.989419824347937	-3.77748754293037e-09	0.989419824347937	-3.77748754292867e-09	0.0105801756520629	3.7041830051941e-09
0.229086765276777	0.0105801756520593	4.05263778052786e-09	0.98941982434794	-4.13557449641485e-09	0.989419824347941	-4.13557449641485e-09	0.0105801756520593	4.05616851846539e-09
0.251188643150958	0.0105801756520575	4.438505328391e-09	0.989419824347942	-4.52820903349238e-09	0.989419824347939	-4.52820903349069e-09	0.010580175652061	4.44211295896812e-09
0.275422870333817	0.0105801756520603	4.8616006813823e-09	0.989419824347941	-4.95872424241039e-09	0.989419824347938	-4.958724242407e-09	0.0105801756520601	4.86529262306265e-09
0.301995172040202	0.0105801756520594	5.32551551132932e-09	0.98941982434794	-5.4307747817335e-09	0.989419824347933	-5.43077478173011e-09	0.0105801756520665	5.32929989829565e-09
0.331131121482591	0.010580175652061	5.8341880067186e-09	0.989419824347939	-5.9483679062609e-09	0.989419824347939	-5.94836790625921e-09	0.0105801756520612	5.83807375792122e-09
0.363078054770101	0.0105801756520601	6.39193630791005e-09	0.989419824347941	-6.51589748092352e-09	0.989419824347938	-6.51589748092352e-09	0.0105801756520602	6.39593320285255e-09
0.398107170553497	0.0105801756520612	7.00349515868291e-09	0.989419824347938	-7.13818128590052e-09	0.989419824347935	-7.13818128589713e-09	0.0105801756520647	7.00761392026537e-09
0.436515832240166	0.0105801756520583	7.67405610461859e-09	0.98941982434794	-7.8205019097607e-09	0.989419824347943	-7.82050190976409e-09	0.0105801756520585	7.67830849032072e-09
0.478630092322638	0.0105801756520566	8.40931156200064e-09	0.989419824347946	-8.5686515959725e-09	0.989419824347942	-8.5686515959691e-09	0.0105801756520565	8.41371046365373e-09
0.524807460249773	0.0105801756520539	9.21550313946552e-09	0.989419824347946	-9.38898141489115e-09	0.989419824347939	-9.38898141488098e-09	0.0105801756520609	9.22006269270776e-09
0.575439937337157	0.0105801756520555	1.00994746266982e-08	0.989419824347944	-1.02884551748444e-08	0.989419824347944	-1.02884551748444e-08	0.0105801756520557	1.01042103309349e-08
0.630957344480193	0.0105801756520557	1.10687300894302e-08	0.989419824347944	-1.12747085402956e-08	0.989419824347948	-1.12747085402956e-08	0.0105801756520522	1.10736589393745e-08
0.691830970918936	0.010580175652053	1.21314975713589e-08	0.989419824347945	-1.23561138515244e-08	0.989419824347949	-1.23561138515311e-08	0.010580175652053	1.21366382014206e-08
0.758577575029184	0.0105801756520467	1.32967989440318e-08	0.989419824347953	-1.35418511962002e-08	0.989419824347954	-1.35418511961968e-08	0.0105801756520468	1.33021717863836e-08
0.831763771102671	0.0105801756520441	1.45745264919567e-08	0.989419824347954	-1.4841986341106e-08	0.989419824347954	-1.4841986341106e-08	0.0105801756520478	1.45801539501593e-08
0.91201083935591	0.0105801756520388	1.59755268900612e-08	0.989419824347959	-1.62675561797139e-08	0.989419824347956	-1.62675561797004e-08	0.0105801756520458	1.59814335288664e-08
1	0.0105801756520422	1.75116932809644e-08	0.98941982434796	-1.78306624245631e-08	0.989419824347967	-1.78306624245699e-08	0.0105801756520315	1.75179060354913e-08
1.09647819614319	0.0105801756520282	1.91960662364421e-08	0.98941982434797	-1.95445743401113e-08	0.98941982434797	-1.95445743401181e-08	0.0105801756520318	1.92026146399377e-08
1.20226443461741	0.010580175652022	2.10429444586025e-08	0.989419824347978	-2.14238413852389e-08	0.989419824347978	-2.14238413852389e-08	0.010580175652022	2.10498608943358e-08
1.31825673855641	0.0105801756520122	2.3068006162411e-08	0.989419824347986	-2.34844167253432e-08	0.989419824347989	-2.34844167253432e-08	0.0105801756520122	2.30753261374136e-08
1.44543977074593	0.0105801756520043	2.52884421712444e-08	0.989419824347995	-2.57437926555256e-08	0.989419824347999	-2.57437926555256e-08	0.0105801756520006	2.52962046185185e-08
1.58489319246111	0.0105801756519951	2.77231018441679e-08	0.989419824348005	-2.82211491006398e-08	0.989419824348008	-2.82211491006398e-08	0.0105801756519916	2.77313494523036e-08
1.73780082874938	0.0105801756519802	3.0392653095271e-08	0.989419824348022	-3.09375164263059e-08	0.989419824348025	-3.09375164263194e-08	0.010580175651973	3.04014326722306e-08
1.90546071796325	0.0105801756519561	3.33197578422385e-08	0.989419824348044	-3.3915953970363e-08	0.989419824348044	-3.3915953970363e-08	0.0105801756519562	3.33291207116728e-08
2.08929613085404	0.0105801756519356	3.65292643810308e-08	0.989419824348063	-3.71817457965942e-08	0.989419824348063	-3.71817457965943e-08	0.0105801756519391	3.65392668180876e-08
2.29086765276777	0.0105801756519054	4.00484183300207e-08	0.989419824348093	-4.0762615326079e-08	0.989419824348089	-4.07626153260519e-08	0.0105801756519126	4.00591220394239e-08
2.51188643150958	0.0105801756518745	4.39070939166082e-08	0.989419824348126	-4.46889606851619e-08	0.989419824348119	-4.46889606851348e-08	0.0105801756518814	4.39185665561105e-08
2.75422870333817	0.010580175651846	4.81380475725427e-08	0.989419824348154	-4.89941127634728e-08	0.989419824348161	-4.89941127635135e-08	0.0105801756518388	4.8150363327946e-08
3.01995172040202	0.0105801756517927	5.27771960184446e-08	0.989419824348204	-5.37146181485047e-08	0.989419824348204	-5.37146181484911e-08	0.0105801756517997	5.27904362325861e-08
3.31131121482591	0.0105801756517424	5.78639211596028e-08	0.989419824348256	-5.88905493726808e-08	0.989419824348256	-5.88905493726808e-08	0.0105801756517456	5.78781750229106e-08
3.63078054770101	0.0105801756516791	6.3441404385444e-08	0.989419824348321	-6.45658451054766e-08	0.989419824348321	-6.45658451054766e-08	0.010580175651679	6.34567696934283e-08
3.98107170553497	0.0105801756516019	6.95569931583582e-08	0.9894198243484	-7.07886831290767e-08	0.9894198243484	-7.07886831291039e-08	0.0105801756515982	6.95735771429236e-08
4.36515832240166	0.0105801756515031	7.62626029308597e-08	0.989419824348496	-7.76118893415424e-08	0.989419824348493	-7.76118893415425e-08	0.0105801756515068	7.62805231683649e-08
4.78630092322638	0.010580175651393	8.36151578865769e-08	0.989419824348607	-8.50933861659708e-08	0.98941982434861	-8.50933861659979e-08	0.0105801756513895	8.36345432977676e-08
5.24807460249773	0.0105801756512535	9.1677074111644e-08	0.989419824348744	-9.32966843180912e-08	0.989419824348745	-9.32966843181183e-08	0.0105801756512571	9.16980660549079e-08
5.75439937337157	0.0105801756510902	1.00516789534075e-07	0.989419824348908	-1.02291421862397e-07	0.989419824348908	-1.02291421862397e-07	0.0105801756510938	1.0053954300755e-07
6.30957344480193	0.0105801756508931	1.10209344806461e-07	0.989419824349108	-1.12153955463695e-07	0.989419824349101	-1.12153955463641e-07	0.0105801756508966	1.10234029762743e-07
6.91830970918937	0.0105801756506622	1.20837020411361e-07	0.989419824349339	-1.22968008500963e-07	0.98941982434934	-1.22968008500963e-07	0.0105801756506586	1.20863823197806e-07
7.58577575029184	0.0105801756503764	1.32490035079536e-07	0.989419824349625	-1.34825381855848e-07	0.989419824349621	-1.34825381855848e-07	0.0105801756503762	1.32519160025426e-07
8.31763771102671	0.0105801756500351	1.45267311693349e-07	0.989419824349966	-1.47826733190408e-07	0.989419824349963	-1.47826733190408e-07	0.0105801756500351	1.45298982837517e-07
9.1201083935591	0.0105801756496248	1.59277317039134e-07	0.989419824350373	-1.62082431428765e-07	0.989419824350373	-1.6208243142871e-07	0.0105801756496285	1.59311780041898e-07
10	0.0105801756491301	1.74638982571257e-07	0.98941982435087	-1.77713493712214e-07	0.98941982435087	-1.77713493712322e-07	0.0105801756491301	1.74676506790449e-07
10.9647819614319	0.0105801756485368	1.91482714065956e-07	0.989419824351463	-1.94852612669016e-07	0.989419824351459	-1.94852612668962e-07	0.0105801756485402	1.91523594848656e-07
12.0226443461741	0.0105801756478235	2.09951498633882e-07	0.989419824352178	-2.1364528285492e-07	0.989419824352174	-2.13645282854866e-07	0.0105801756478237	2.09996059825478e-07
13.1825673855641	0.0105801756469647	2.30202118470008e-07	0.989419824353035	-2.34251035938779e-07	0.989419824353035	-2.34251035938779e-07	0.0105801756469647	2.30250715162758e-07
14.4543977074593	0.0105801756459398	2.52406481908636e-07	0.989419824354064	-2.56844794854208e-07	0.98941982435406	-2.56844794854099e-07	0.0105801756459361	2.52459503448485e-07
15.8489319246111	0.0105801756446957	2.76753082657549e-07	0.989419824355302	-2.81618358815194e-07	0.989419824355302	-2.81618358815194e-07	0.0105801756446992	2.76810955959186e-07
17.3780082874938	0.0105801756432105	3.03448599960673e-07	0.989419824356791	-3.08782031482511e-07	0.989419824356792	-3.08782031482511e-07	0.0105801756432066	3.0351179313424e-07
19.0546071796325	0.0105801756414161	3.3271965317193e-07	0.989419824358585	-3.38566406182924e-07	0.989419824358582	-3.38566406182924e-07	0.0105801756414162	3.32788679487301e-07
20.8929613085404	0.010580175639258	3.64814725443236e-07	0.989419824360743	-3.71224323501601e-07	0.98941982436074	-3.71224323501709e-07	0.0105801756392579	3.64890147699567e-07
22.9086765276777	0.0105801756366734	4.00006273134148e-07	0.989419824363324	-4.07033017649064e-07	0.989419824363328	-4.07033017649064e-07	0.0105801756366735	4.00088708423429e-07
25.1188643150958	0.0105801756335639	4.38593038779716e-07	0.989419824366439	-4.4629646981059e-07	0.989419824366439	-4.4629646981059e-07	0.0105801756335568	4.3868316374992e-07
27.5422870333817	0.0105801756298164	4.80902587021151e-07	0.989419824370185	-4.89347988796201e-07	0.989419824370182	-4.893479887962e-07	0.0105801756298165	4.81001143597896e-07
30.1995172040202	0.0105801756253205	5.27294085430653e-07	0.989419824374681	-5.36553040368258e-07	0.989419824374681	-5.36553040368041e-07	0.0105801756253169	5.27401887129861e-07
33.1131121482591	0.0105801756199134	5.78161353420202e-07	0.989419824380088	-5.88312349777487e-07	0.989419824380092	-5.88312349777487e-07	0.0105801756199063	5.78279292258801e-07
36.3078054770101	0.010580175613411	6.33936205400413e-07	0.989419824386592	-6.45065303543895e-07	0.989419824386592	-6.45065303543895e-07	0.0105801756134039	6.34065259454315e-07
39.8107170553497	0.0105801756055941	6.95092116616194e-07	0.989419824394411	-7.07293679234541e-07	0.989419824394408	-7.07293679234324e-07	0.010580175605587	6.9523335835737e-07
43.6515832240166	0.0105801755961917	7.62148242264456e-07	0.989419824403814	-7.75525735569396e-07	0.98941982440381	-7.75525735568963e-07	0.0105801755961847	7.6230284763181e-07
47.8630092322639	0.0105801755848934	8.35673824792432e-07	0.989419824415113	-8.50340696602162e-07	0.98941982441511	-8.50340696601729e-07	0.0105801755848828	8.35843083210911e-07
52.4807460249773	0.0105801755713113	9.16293026198035e-07	0.989419824428696	-9.32373668820641e-07	0.989419824428696	-9.32373668820641e-07	0.0105801755712969	9.16478351508689e-07
57.5439937337157	0.010580175554974	1.00469022656664e-06	0.989419824445037	-1.0223210325502e-06	0.989419824445033	-1.02232103254976e-06	0.0105801755549563	1.00489316904109e-06
63.0957344480193	0.0105801755353391	1.10161583388637e-06	0.989419824464673	-1.12094635342994e-06	0.98941982446467	-1.12094635342907e-06	0.0105801755353179	1.10183809340012e-06
69.1830970918936	0.0105801755117358	1.20789265401497e-06	0.989419824488278	-1.22908686459641e-06	0.989419824488278	-1.22908686459684e-06	0.0105801755117074	1.20813609448545e-06
75.8577575029184	0.0105801754833513	1.32442287585676e-06	0.989419824516666	-1.34766057359936e-06	0.989419824516666	-1.34766057359936e-06	0.0105801754833157	1.32468954104235e-06
83.1763771102671	0.010580175449232	1.45219572995252e-06	0.989419824550788	-1.47767405536767e-06	0.989419824550791	-1.47767405536811e-06	0.0105801754491892	1.45248786088221e-06
91.201083935591	0.0105801754082024	1.59229588577109e-06	0.989419824591822	-1.62023099736916e-06	0.989419824591822	-1.62023099736916e-06	0.0105801754081528	1.59261593970193e-06
100	0.0105801753588801	1.74591266011853e-06	0.989419824641148	-1.77654156797383e-06	0.989419824641144	-1.77654156797297e-06	0.0105801753588267	1.74626333148201e-06
109.647819614319	0.0105801752995826	1.91435011260167e-06	0.989419824700454	-1.94793269020325e-06	0.98941982470045	-1.94793269020325e-06	0.0105801752995117	1.91473435579102e-06
120.226443461741	0.010580175228292	2.09903811603917e-06	0.989419824771748	-2.13585930534509e-06	0.989419824771748	-2.13585930534509e-06	0.0105801752282105	2.09945917063747e-06
131.825673855641	0.0105801751425811	2.30154449463397e-06	0.98941982485747	-2.34191672378661e-06	0.989419824857466	-2.34191672378661e-06	0.0105801751424813	2.30200591284837e-06
144.543977074593	0.010580175039532	2.52358833272188e-06	0.989419824960527	-2.56785416760749e-06	0.989419824960527	-2.56785416760836e-06	0.0105801750394112	2.52409400955215e-06
158.489319246111	0.0105801749156399	2.76705456834104e-06	0.989419825084433	-2.81558961872773e-06	0.989419825084426	-2.81558961872773e-06	0.0105801749154976	2.76760877471714e-06
173.780082874938	0.0105801747666928	3.03400999360735e-06	0.989419825233393	-3.08722610066047e-06	0.989419825233396	-3.08722610066134e-06	0.0105801747665153	3.03461741262088e-06
190.546071796325	0.0105801745876146	3.32672079964621e-06	0.989419825412489	-3.38506952974639e-06	0.989419825412485	-3.38506952974466e-06	0.0105801745874086	3.32738656640651e-06
208.929613085404	0.0105801743723218	3.64767181327587e-06	0.989419825627802	-3.71164828945336e-06	0.989419825627806	-3.71164828945336e-06	0.010580174372066	3.64840155839263e-06
229.086765276777	0.0105801741134746	3.9995875896065e-06	0.989419825886674	-4.06973469227641e-06	0.98941982588667	-4.06973469227467e-06	0.0105801741131761	4.00038748714533e-06
251.188643150958	0.0105801738022803	4.3854555394577e-06	0.989419826197901	-4.4623685120232e-06	0.989419826197898	-4.46236851202146e-06	0.0105801738019145	4.38633235932441e-06
275.422870333817	0.0105801734281419	4.80855128738057e-06	0.989419826572075	-4.89288278613178e-06	0.989419826572071	-4.89288278613005e-06	0.0105801734277051	4.80951245271887e-06
301.995172040202	0.0105801729783299	5.27246647552028e-06	0.98941982702193	-5.36493210647783e-06	0.98941982702193	-5.36493210647956e-06	0.0105801729778008	5.2735201259077e-06
331.131121482591	0.0105801724375339	5.78113924952148e-06	0.989419827562779	-5.88252363884108e-06	0.989419827562779	-5.88252363883934e-06	0.0105801724368978	5.78229431002185e-06
363.078054770101	0.010580171787361	6.33888768361047e-06	0.989419828213017	-6.45005113469529e-06	0.98941982821302	-6.45005113469876e-06	0.0105801717865899	6.34015394045985e-06
398.107170553497	0.0105801710056755	6.9504464303427e-06	0.989419828994777	-7.07233222154921e-06	0.989419828994781	-7.07233222155268e-06	0.0105801710047517	6.95183461416754e-06
436.515832240166	0.0105801700658798	7.62100690391079e-06	0.989419829934661	-7.75464928981853e-06	0.989419829934658	-7.75464928981159e-06	0.010580170064782	7.62252878070551e-06
478.630092322639	0.0105801689360067	8.35626133584289e-06	0.989419831064649	-8.50279432340617e-06	0.989419831064642	-8.50279432339923e-06	0.0105801689346815	8.35792980696803e-06
524.807460249773	0.0105801675776059	9.16245108054797e-06	0.989419832423182	-9.32311804975605e-06	0.989419832423175	-9.32311804974911e-06	0.0105801675760108	9.16428029219124e-06
575.439937337157	0.0105801659444461	1.00464195756031e-05	0.989419834056501	-1.02225838284585e-05	0.989419834056494	-1.0222583828455e-05	0.0105801659425276	1.00484250390512e-05
630.957344480193	0.0105801639809617	1.10156704044365e-05	0.989419836020176	-1.12088267347522e-05	0.989419836020173	-1.12088267347522e-05	0.0105801639786525	1.10178691277441e-05
691.830970918936	0.0105801616203462	1.20784309545659e-05	0.98941983838102	-1.22902183342481e-05	0.989419838381024	-1.22902183342481e-05	0.0105801616175643	1.20808415871934e-05
758.577575029184	0.0105801587822575	1.32437222055866e-05	0.989419841219384	-1.34759376989695e-05	0.98941984121938	-1.34759376989625e-05	0.0105801587789249	1.32463651969401e-05
831.763771102671	0.0105801553701452	1.45214352374815e-05	0.989419844631828	-1.47760492615265e-05	0.989419844631821	-1.47760492615195e-05	0.0105801553661412	1.45243330109401e-05
912.01083935591	0.0105801512679024	1.59224151000323e-05	0.989419848734472	-1.62015881670016e-05	0.989419848734471	-1.62015881670086e-05	0.0105801512630779	1.59255922441287e-05
1000	0.01058014633596	1.74585657616785e-05	0.989419853666894	-1.77646322352468e-05	0.989419853666887	-1.77646322352329e-05	0.0105801463301656	1.74620484762744e-05
1096.47819614319	0.0105801404064631	1.91428858618836e-05	0.989419859596966	-1.94785124772515e-05	0.989419859596963	-1.94785124772445e-05	0.0105801403994962	1.91467052313085e-05
1202.26443461741	0.010580133277711	2.09897091571279e-05	0.989419866726412	-2.13577096997916e-05	0.989419866726416	-2.13577096997986e-05	0.0105801332693266	2.09938968451437e-05
1318.25673855641	0.0105801247071306	2.30146956027716e-05	0.989419875297825	-2.34181935100733e-05	0.989419875297821	-2.34181935100663e-05	0.0105801246970621	2.30192871614882e-05
1445.43977074593	0.0105801144031373	2.52350289233899e-05	0.989419885602824	-2.56774495752884e-05	0.989419885602817	-2.56774495752954e-05	0.0105801143910261	2.52400633414043e-05
1584.89319246111	0.0105801020151682	2.76695488546849e-05	0.989419897991996	-2.81546493315771e-05	0.989419897992	-2.8154649331584e-05	0.0105801020006022	2.76750688938815e-05
1737.80082874938	0.0105800871217675	3.03389100170804e-05	0.989419912886847	-3.08708125510704e-05	0.98941991288685	-3.08708125510704e-05	0.010580087104256	3.03449625881219e-05
1905.46071796325	0.0105800692162792	3.32657551292692e-05	0.989419930794075	-3.38489861326646e-05	0.989419930794082	-3.38489861326785e-05	0.0105800691952257	3.32723917210731e-05
2089.29613085404	0.0105800476896025	3.6474901455405e-05	0.98941995232285	-3.71144418391811e-05	0.989419952322846	-3.7114441839195e-05	0.0105800476642964	3.6482178705291e-05
2290.86765276777	0.0105800218095681	3.99935392426665e-05	0.989419978205406	-4.06948900985027e-05	0.989419978205406	-4.06948900985027e-05	0.010580021779132	4.00015212400906e-05
2511.88643150958	0.0105799906956446	4.38516972255942e-05	0.989420009322346	-4.46205727381021e-05	0.989420009322346	-4.46205727381021e-05	0.0105799906590765	4.38604431665795e-05
2754.22870333817	0.0105799532902011	4.80819811553984e-05	0.989420046731414	-4.89247451550822e-05	0.989420046731411	-4.89247451550684e-05	0.0105799532462684	4.80915653671421e-05
