!Generated from: C:\SIPIProj\Olympus\Xtract\Run_20240725_143525\SimFile\SIM1_P1V8__20240725_143525.spd
! Port_1::P1V8
! Port_2::P1V8
! Port_3::P1V8
!
!Layout Workbench Version: 23.1.2.10131.459628   200
!Computer Host Name: YANSHENG-LT
!
!TouchstoneFormatFlag = 1
! GNDNET GND
! NETSLIST P1V8
! Port 1 = U1-N6 P1V8
! Port 2 = U1-J12 P1V8
! Port 3 = PL8-2 P1V8
!
#	Hz	S	RI	R	0.1
0	-0.319508290373672	0	0.668790449813063	0	0.65071784056061	0
			0.668790449813055	0	-0.320548752815253	0	0.651758303002197	0
			0.650717840560618	0	0.651758303002193	0	-0.30247614356281	0
0.1	-0.319508290373665	2.93436124985729e-09	0.668790449813062	-5.37929264583609e-10	0.650717840560609	-2.1894974921173e-09
			0.668790449813061	-5.37929264586252e-10	-0.320548752815257	2.55457558800498e-09	0.651758303002196	-1.94365717386618e-09
			0.650717840560608	-2.18949749211763e-09	0.651758303002197	-1.9436571738667e-09	-0.302476143562811	4.13546080072915e-09
0.120226443461741	-0.319508290373672	3.48349843337999e-09	0.668790449813065	-6.44758906165654e-10	0.650717840560609	-2.63790025159421e-09
			0.668790449813058	-6.44758906165431e-10	-0.320548752815257	3.04762386892792e-09	0.6517583030022	-2.33599388540305e-09
			0.650717840560618	-2.63790025159835e-09	0.651758303002192	-2.33599388540082e-09	-0.302476143562812	4.97021571170518e-09
0.131825673855641	-0.319508290373671	3.79841137127217e-09	0.668790449813056	-7.06022351223646e-10	0.650717840560611	-2.89504515737184e-09
			0.668790449813063	-7.0602235122459e-10	-0.320548752815257	3.33037158170574e-09	0.651758303002197	-2.56098667268507e-09
			0.65071784056062	-2.89504515737366e-09	0.651758303002194	-2.5609866726859e-09	-0.302476143562812	5.44892145007733e-09
0.144543977074593	-0.319508290373668	4.1437065387111e-09	0.668790449813059	-7.73196385950885e-10	0.650717840560609	-3.17699894259648e-09
			0.668790449813062	-7.73196385954575e-10	-0.320548752815257	3.64039828084777e-09	0.651758303002198	-2.80768636111777e-09
			0.650717840560619	-3.1769989426002e-09	0.651758303002192	-2.80768636111797e-09	-0.302476143562812	5.97381185181501e-09
0.158489319246111	-0.319508290373667	4.52231516764493e-09	0.668790449813059	-8.46851243972328e-10	0.650717840560608	-3.48615511424919e-09
			0.668790449813067	-8.46851243976765e-10	-0.320548752815261	3.98033580331056e-09	0.651758303002195	-3.07818718421688e-09
			0.650717840560617	-3.48615511425132e-09	0.651758303002193	-3.07818718421624e-09	-0.302476143562812	6.54934273868265e-09
0.173780082874938	-0.319508290373671	4.93745126712781e-09	0.668790449813062	-9.27612197388047e-10	0.650717840560609	-3.82513812284939e-09
			0.668790449813061	-9.27612197392373e-10	-0.320548752815256	4.35306987725419e-09	0.651758303002196	-3.37478544608896e-09
			0.650717840560611	-3.82513812285132e-09	0.651758303002199	-3.37478544608789e-09	-0.302476143562812	7.18039980033769e-09
0.190546071796325	-0.31950829037367	5.39263895651669e-09	0.668790449813061	-1.01616481440135e-09	0.650717840560612	-4.19682559331048e-09
			0.668790449813052	-1.01616481440218e-09	-0.320548752815252	4.76176467007367e-09	0.651758303002197	-3.69999896590599e-09
			0.650717840560614	-4.19682559331092e-09	0.651758303002196	-3.69999896590533e-09	-0.30247614356281	7.87234011601992e-09
0.208929613085404	-0.319508290373673	5.89174232898321e-09	0.668790449813066	-1.11326083292178e-09	0.650717840560608	-4.60437280493909e-09
			0.668790449813063	-1.113260832926e-09	-0.320548752815259	5.20988959472586e-09	0.651758303002195	-4.05658850403238e-09
			0.650717840560617	-4.60437280494526e-09	0.651758303002199	-4.05658850403364e-09	-0.302476143562815	8.63103758082507e-09
0.229086765276777	-0.319508290373676	6.43899829762509e-09	0.668790449813064	-1.21972449777896e-09	0.650717840560613	-5.05123943382211e-09
			0.66879044981306	-1.21972449777641e-09	-0.320548752815256	5.70124880639364e-09	0.6517583030022	-4.44758115519905e-09
			0.650717840560613	-5.05123943381896e-09	0.651758303002194	-4.44758115519565e-09	-0.302476143562811	9.46293281078206e-09
0.251188643150958	-0.319508290373678	7.03905252745056e-09	0.668790449813064	-1.33645959334233e-09	0.650717840560614	-5.54121895715633e-09
			0.66879044981306	-1.3364595933421e-09	-0.320548752815256	6.24001346041006e-09	0.651758303002201	-4.87629608009403e-09
			0.650717840560609	-5.54121895715425e-09	0.651758303002199	-4.87629608009464e-09	-0.302476143562812	1.03750877840832e-08
0.275422870333817	-0.319508290373678	7.69699891768185e-09	0.668790449813063	-1.46445707058464e-09	0.650717840560611	-6.07847081114463e-09
			0.668790449813058	-1.46445707058398e-09	-0.320548752815255	6.83075716660725e-09	0.651758303002198	-5.34637263801953e-09
			0.650717840560616	-6.07847081114848e-09	0.651758303002202	-5.34637263802079e-09	-0.302476143562817	1.13752458331497e-08
0.301995172040202	-0.319508290373676	8.41842278830797e-09	0.668790449813069	-1.60480351521663e-09	0.65071784056061	-6.6675557565154e-09
			0.668790449813064	-1.60480351521597e-09	-0.320548752815259	7.47849475883396e-09	0.651758303002197	-5.8618013357916e-09
			0.650717840560618	-6.66755575651968e-09	0.651758303002194	-5.86180133578947e-09	-0.302476143562818	1.24718973251425e-08
0.331131121482591	-0.319508290373673	9.20944833328201e-09	0.668790449813061	-1.75869033254944e-09	0.650717840560611	-7.3134745551967e-09
			0.668790449813065	-1.75869033256085e-09	-0.320548752815259	8.18872490515793e-09	0.651758303002196	-6.42695766532199e-09
			0.650717840560619	-7.31347455520394e-09	0.651758303002199	-6.42695766532114e-09	-0.302476143562819	1.36743517742257e-08
0.363078054770101	-0.319508290373679	1.00767905922326e-08	0.668790449813064	-1.92742387796412e-09	0.650717840560616	-8.02171043945523e-09
			0.668790449813055	-1.92742387796155e-09	-0.320548752815256	8.96747676994234e-09	0.651758303002201	-7.04663926328169e-09
			0.65071784056062	-8.0217104394591e-09	0.651758303002196	-7.04663926327702e-09	-0.302476143562816	1.49928168545091e-08
0.398107170553497	-0.319508290373673	1.1027812483046e-08	0.668790449813058	-2.11243651806931e-09	0.650717840560613	-8.79827563108845e-09
			0.668790449813063	-2.11243651807309e-09	-0.320548752815261	9.82136122436392e-09	0.6517583030022	-7.72610661073547e-09
			0.650717840560619	-8.79827563109274e-09	0.651758303002201	-7.7261066107291e-09	-0.30247614356282	1.64384850801287e-08
0.436515832240166	-0.31950829037368	1.20705872326379e-08	0.668790449813064	-2.31529886472053e-09	0.650717840560615	-9.6497624507231e-09
			0.668790449813066	-2.3152988647188e-09	-0.320548752815261	1.07576268905562e-08	0.6517583030022	-8.47112776220231e-09
			0.650717840560622	-9.64976245072698e-09	0.651758303002196	-8.47112776220484e-09	-0.302476143562821	1.80236287493365e-08
0.478630092322638	-0.319508290373679	1.3213967021997e-08	0.668790449813063	-2.53773299436219e-09	0.650717840560619	-1.05833991728652e-08
			0.668790449813064	-2.53773299437189e-09	-0.320548752815267	1.17842217910998e-08	0.651758303002204	-9.28802720012135e-09
			0.650717840560622	-1.05833991728665e-08	0.651758303002199	-9.28802720011795e-09	-0.302476143562824	1.97617042301367e-08
0.524807460249773	-0.319508290373682	1.44676580513125e-08	0.668790449813067	-2.7816271508818e-09	0.650717840560617	-1.16071114645208e-08
			0.66879044981307	-2.78162715088938e-09	-0.320548752815271	1.29098607341578e-08	0.651758303002203	-1.01837396056383e-08
			0.650717840560627	-1.16071114645353e-08	0.651758303002194	-1.0183739605629e-08	-0.302476143562826	2.16674661142484e-08
0.575439937337157	-0.319508290373684	1.58423029091114e-08	0.668790449813067	-3.04905180084683e-09	0.65071784056062	-1.27295896953994e-08
			0.668790449813072	-3.04905180084805e-09	-0.320548752815276	1.41440992683417e-08	0.651758303002205	-1.11658687523482e-08
			0.650717840560629	-1.27295896954071e-08	0.651758303002199	-1.11658687523389e-08	-0.30247614356283	2.37570924439694e-08
0.630957344480193	-0.319508290373692	1.73495710326198e-08	0.668790449813073	-3.34227709465472e-09	0.650717840560619	-1.39603625955374e-08
			0.66879044981307	-3.34227709466737e-09	-0.320548752815274	1.54974149158144e-08	0.651758303002205	-1.22427519432423e-08
			0.650717840560624	-1.3960362595546e-08	0.651758303002206	-1.22427519432406e-08	-0.302476143562833	2.60483221570799e-08
0.691830970918936	-0.319508290373697	1.90022576905289e-08	0.668790449813076	-3.66379221714082e-09	0.650717840560624	-1.53098782261801e-08
			0.668790449813073	-3.66379221714837e-09	-0.320548752815279	1.69812960375323e-08	0.651758303002209	-1.34235308629359e-08
			0.650717840560631	-1.53098782261908e-08	0.651758303002202	-1.34235308629206e-08	-0.302476143562837	2.85606055979107e-08
0.758577575029184	-0.319508290373711	2.08143925612804e-08	0.668790449813084	-4.01632656144108e-09	0.650717840560626	-1.67895927111131e-08
			0.668790449813078	-4.01632656144609e-09	-0.320548752815287	1.86083393132433e-08	0.651758303002211	-1.47182292242212e-08
			0.65071784056063	-1.67895927111242e-08	0.651758303002211	-1.47182292242296e-08	-0.302476143562843	3.13152695928032e-08
0.831763771102671	-0.319508290373712	2.28013589437332e-08	0.668790449813078	-4.40287278445398e-09	0.650717840560634	-1.8412067379229e-08
			0.668790449813081	-4.40287278448017e-09	-0.320548752815291	2.03923567915845e-08	0.651758303002212	-1.61378377482437e-08
			0.650717840560632	-1.84120673792283e-08	0.651758303002216	-1.61378377482504e-08	-0.302476143562849	3.43356986009297e-08
0.91201083935591	-0.319508290373724	2.49800242814552e-08	0.668790449813088	-4.82671227801649e-09	0.650717840560635	-2.01910754629352e-08
			0.668790449813076	-4.82671227798846e-09	-0.320548752815292	2.23484930745259e-08	0.651758303002218	-1.76944075293534e-08
			0.650717840560638	-2.01910754629277e-08	0.651758303002218	-1.76944075293508e-08	-0.302476143562855	3.76475331635671e-08
1	-0.319508290373738	2.73688833406413e-08	0.668790449813094	-5.2914430347193e-09	0.650717840560642	-2.21417190293503e-08
			0.668790449813087	-5.29144303468109e-09	-0.320548752815306	2.44933538698188e-08	0.651758303002221	-1.94011523472859e-08
			0.650717840560647	-2.21417190293504e-08	0.651758303002219	-1.94011523472825e-08	-0.302476143562865	4.1278887558084e-08
1.09647819614319	-0.319508290373746	2.99882152428217e-08	0.668790449813097	-5.80101016263557e-09	0.650717840560647	-2.42805571509724e-08
			0.668790449813095	-5.80101016265328e-09	-0.32054875281532	2.68451469858421e-08	0.651758303002227	-2.12725608116467e-08
			0.650717840560655	-2.42805571509844e-08	0.651758303002223	-2.12725608116382e-08	-0.302476143562876	4.52605884889947e-08
1.20226443461741	-0.319508290373754	3.28602555222899e-08	0.668790449813098	-6.35973946733042e-09	0.650717840560653	-2.66257465713627e-08
			0.668790449813101	-6.35973946736842e-09	-0.320548752815332	2.9423836807369e-08	0.65175830300223	-2.33245194447258e-08
			0.650717840560657	-2.66257465713765e-08	0.651758303002235	-2.33245194447309e-08	-0.302476143562888	4.96264366893181e-08
1.31825673855641	-0.319508290373778	3.60093851376015e-08	0.668790449813113	-6.97237392007921e-09	0.650717840560664	-2.91971955855436e-08
			0.668790449813108	-6.9723739200613e-09	-0.320548752815348	3.22513140282217e-08	0.65175830300224	-2.55744472970766e-08
			0.650717840560668	-2.91971955855336e-08	0.651758303002238	-2.55744472970765e-08	-0.302476143562905	5.44134940956529e-08
1.44543977074593	-0.319508290373795	3.94623371030202e-08	0.668790449813118	-7.64411426278812e-09	0.650717840560676	-3.20167333782829e-08
			0.668790449813123	-7.64411426273886e-09	-0.320548752815367	3.53515811387504e-08	0.651758303002247	-2.80414441498258e-08
			0.650717840560677	-3.20167333782729e-08	0.651758303002246	-2.80414441498224e-08	-0.302476143562925	5.96623981468694e-08
1.58489319246111	-0.319508290373819	4.32484236801466e-08	0.668790449813128	-8.3806629005479e-09	0.650717840560685	-3.51082950848195e-08
			0.668790449813135	-8.38066290057994e-09	-0.320548752815387	3.87509564431298e-08	0.651758303002256	-3.07464524040394e-08
			0.650717840560698	-3.51082950848672e-08	0.651758303002255	-3.07464524040512e-08	-0.302476143562951	6.54177069971246e-08
1.73780082874938	-0.319508290373856	4.73997851000996e-08	0.668790449813148	-9.18827242381105e-09	0.650717840560704	-3.84981250805771e-08
			0.66879044981314	-9.18827242375327e-09	-0.320548752815407	4.24782973591072e-08	0.65175830300227	-3.37124349729959e-08
			0.650717840560707	-3.84981250805537e-08	0.651758303002273	-3.37124349729942e-08	-0.302476143562979	7.17282776664546e-08
1.90546071796325	-0.319508290373889	5.19516624372709e-08	0.668790449813162	-1.0073798649102e-08	0.650717840560721	-4.22149997438696e-08
			0.668790449813174	-1.00737986491678e-08	-0.320548752815453	4.65652454309832e-08	0.651758303002285	-3.69645701774715e-08
			0.650717840560731	-4.22149997439224e-08	0.65175830300228	-3.69645701774833e-08	-0.302476143563012	7.86476808225026e-08
2.08929613085404	-0.319508290373935	5.69426966905849e-08	0.668790449813189	-1.10447589055634e-08	0.650717840560747	-4.62904718133971e-08
			0.668790449813183	-1.10447589055598e-08	-0.320548752815488	5.10464948443858e-08	0.651758303002304	-4.05304655713095e-08
			0.650717840560752	-4.62904718134059e-08	0.651758303002299	-4.05304655712789e-08	-0.302476143563051	8.62346554654202e-08
2.29086765276777	-0.319508290373988	6.24152570953452e-08	0.668790449813217	-1.21093955545888e-08	0.650717840560773	-5.07591379672312e-08
			0.668790449813214	-1.21093955545733e-08	-0.320548752815534	5.59600872493894e-08	0.651758303002321	-4.44403920146388e-08
			0.650717840560776	-5.07591379672298e-08	0.651758303002324	-4.44403920146895e-08	-0.302476143563102	9.45536078375469e-08
2.51188643150958	-0.319508290374051	6.84158003031102e-08	0.66879044981324	-1.32767464659145e-08	0.650717840560808	-5.56589329894429e-08
			0.668790449813244	-1.3276746465899e-08	-0.320548752815593	6.13477341799198e-08	0.651758303002349	-4.8727541138171e-08
			0.650717840560813	-5.56589329894229e-08	0.651758303002351	-4.87275411381472e-08	-0.30247614356316	1.0367515770126e-07
2.75422870333817	-0.319508290374139	7.49952651288472e-08	0.668790449813289	-1.45567213559089e-08	0.65071784056085	-6.10314514455587e-08
			0.668790449813286	-1.45567213559222e-08	-0.320548752815667	6.72551715397157e-08	0.651758303002381	-5.34283067324478e-08
			0.65071784056085	-6.10314514455726e-08	0.651758303002381	-5.34283067324613e-08	-0.30247614356323	1.13676738187329e-07
3.01995172040202	-0.319508290374217	8.220950500734e-08	0.668790449813317	-1.59601858814669e-08	0.650717840560898	-6.69223007348717e-08
			0.66879044981333	-1.59601858815039e-08	-0.320548752815743	7.37325478820152e-08	0.651758303002419	-5.85825936678119e-08
			0.650717840560902	-6.69223007348755e-08	0.65175830300241	-5.85825936677677e-08	-0.302476143563315	1.24643253160692e-07
3.31131121482591	-0.319508290374345	9.01197618108883e-08	0.668790449813385	-1.74990542058042e-08	0.650717840560956	-7.33814885796491e-08
			0.668790449813377	-1.74990542057192e-08	-0.320548752815837	8.08348497943333e-08	0.651758303002463	-6.42341569659568e-08
			0.650717840560954	-7.33814885795683e-08	0.651758303002467	-6.42341569659872e-08	-0.302476143563419	1.36667797662851e-07
3.63078054770101	-0.319508290374469	9.87931862697487e-08	0.668790449813447	-1.9186389596304e-08	0.650717840561025	-8.04638470131733e-08
			0.66879044981344	-1.91863895963002e-08	-0.320548752815957	8.86223692302896e-08	0.651758303002513	-7.043097271016e-08
			0.650717840561027	-8.04638470132416e-08	0.651758303002518	-7.04309727101565e-08	-0.302476143563543	1.49852448708676e-07
3.98107170553497	-0.319508290374631	1.08303407163e-07	0.668790449813522	-2.10365161875572e-08	0.650717840561107	-8.82294986925549e-08
			0.668790449813527	-2.10365161876787e-08	-0.320548752816103	9.71612144511578e-08	0.651758303002577	-7.72256461611721e-08
			0.650717840561118	-8.82294986926741e-08	0.651758303002574	-7.72256461611821e-08	-0.302476143563692	1.6430913100761e-07
4.36515832240166	-0.319508290374831	1.18731157215191e-07	0.668790449813617	-2.30651397069927e-08	0.650717840561212	-9.67443664431589e-08
			0.668790449813614	-2.30651397069551e-08	-0.32054875281627	1.06523872106864e-07	0.651758303002657	-8.46758574751633e-08
			0.650717840561212	-9.67443664431359e-08	0.651758303002653	-8.46758574751293e-08	-0.302476143563864	1.80160567912185e-07
4.78630092322638	-0.319508290375063	1.30164958163984e-07	0.668790449813726	-2.52894810888741e-08	0.650717840561334	-1.0608073313898e-07
			0.668790449813728	-2.52894810888397e-08	-0.320548752816479	1.16789822283168e-07	0.651758303002748	-9.28448516342336e-08
			0.650717840561334	-1.06080733138924e-07	0.651758303002749	-9.28448516342198e-08	-0.302476143564078	1.97541322957391e-07
5.24807460249773	-0.319508290375352	1.42701871857332e-07	0.668790449813872	-2.77284230319401e-08	0.65071784056148	-1.16317855690035e-07
			0.668790449813862	-2.77284230317805e-08	-0.320548752816719	1.28046212842536e-07	0.651758303002861	-1.01801975691955e-07
			0.65071784056148	-1.16317855690063e-07	0.651758303002858	-1.01801975691934e-07	-0.302476143564341	2.16598941824413e-07
5.75439937337157	-0.319508290375682	1.56448324899432e-07	0.668790449814031	-3.04026696035103e-08	0.650717840561652	-1.27542637188148e-07
			0.668790449814034	-3.04026696036183e-08	-0.320548752817028	1.40388599928978e-07	0.651758303002993	-1.11623266788697e-07
			0.650717840561654	-1.27542637188162e-07	0.651758303002998	-1.1162326678873e-07	-0.30247614356465	2.37495205509294e-07
6.30957344480193	-0.319508290376096	1.71521011330279e-07	0.668790449814223	-3.33349227986941e-08	0.650717840561866	-1.39850365387203e-07
			0.668790449814224	-3.33349227987681e-08	-0.320548752817371	1.53921758331816e-07	0.651758303003154	-1.22392098415242e-07
			0.650717840561874	-1.39850365387217e-07	0.651758303003147	-1.22392098415147e-07	-0.302476143565021	2.60407502942917e-07
6.91830970918937	-0.319508290376585	1.88047884041213e-07	0.66879044981446	-3.65500744510747e-08	0.650717840562122	-1.53345520829176e-07
			0.668790449814461	-3.65500744509316e-08	-0.320548752817806	1.68760571742945e-07	0.651758303003347	-1.34199887387426e-07
			0.650717840562122	-1.53345520829014e-07	0.651758303003347	-1.34199887387467e-07	-0.302476143565468	2.85530337604549e-07
7.58577575029184	-0.319508290377168	2.06169240326469e-07	0.668790449814742	-4.00754181941845e-08	0.650717840562424	-1.6814266443768e-07
			0.66879044981474	-4.00754181941567e-08	-0.320548752818321	1.85031007356784e-07	0.651758303003581	-1.47146870518673e-07
			0.650717840562431	-1.68142664437748e-07	0.651758303003575	-1.47146870518632e-07	-0.302476143566005	3.13076978052481e-07
8.31763771102671	-0.319508290377879	2.26038913231626e-07	0.668790449815088	-4.3940880814679e-08	0.650717840562791	-1.84367409652002e-07
			0.668790449815083	-4.3940880814651e-08	-0.320548752818939	2.0287118554735e-07	0.651758303003859	-1.61342955204261e-07
			0.650717840562795	-1.84367409651996e-07	0.651758303003856	-1.61342955204234e-07	-0.302476143566653	3.43281268701872e-07
9.1201083935591	-0.319508290378725	2.47825577445809e-07	0.668790449815491	-4.81792762934468e-08	0.650717840563231	-2.02157488802241e-07
			0.668790449815495	-4.81792762935748e-08	-0.320548752819686	2.22432552400378e-07	0.651758303004196	-1.76908652414669e-07
			0.650717840563237	-2.02157488802297e-07	0.651758303004194	-1.76908652414791e-07	-0.302476143567431	3.763996149334e-07
10	-0.319508290379746	2.717141810654e-07	0.668790449815982	-5.2826584514586e-08	0.650717840563764	-2.21663922420469e-07
			0.66879044981599	-5.28265845149171e-08	-0.320548752820586	2.43881165187696e-07	0.651758303004599	-1.93976099867603e-07
			0.650717840563767	-2.21663922420586e-07	0.651758303004594	-1.93976099867656e-07	-0.302476143568364	4.12713159601423e-07
10.9647819614319	-0.31950829038098	2.97907515400042e-07	0.668790449816577	-5.79222569270399e-08	0.650717840564401	-2.43052301510674e-07
			0.668790449816574	-5.79222569268761e-08	-0.320548752821652	2.67399101812094e-07	0.651758303005084	-2.12690183965484e-07
			0.650717840564407	-2.43052301510662e-07	0.65175830300508	-2.12690183965375e-07	-0.302476143569489	4.52530169443111e-07
